Circuit: * C:\Users\joaqu\Desktop\Circuit-Design\LDOA_Regulator\Draft1.asc

WARNING: Specified period is not longer than the sum of Trise, Tfall, and Ton for v:ldoa:7.  Increasing period to 2
WARNING: Node LDOA:SLOW_OVLO is floating.

WARNING: Less than two connections to node LDOA:VCOMP_V.  This node is used by V:LDOA:COMP.
WARNING: Less than two connections to node LDOA:VCOMP_I.  This node is used by V:LDOA:COMP1.
WARNING: Less than two connections to node LDOA:VP_UVLO.  This node is used by V:LDOA:4.
WARNING: Less than two connections to node LDOA:VP_OVLO.  This node is used by V:LDOA:3.
Ignoring empty pin current: Ix(u6:1)
Ignoring empty pin current: Ix(u6:2)
Ignoring empty pin current: Ix(u6:99)
Ignoring empty pin current: Ix(u6:50)
Ignoring empty pin current: Ix(u6:28)
Ignoring empty pin current: Ix(u1:1)
Ignoring empty pin current: Ix(u1:2)
Ignoring empty pin current: Ix(u1:99)
Ignoring empty pin current: Ix(u1:50)
Ignoring empty pin current: Ix(u1:28)
Ignoring empty pin current: Ix(u2:1)
Ignoring empty pin current: Ix(u2:2)
Ignoring empty pin current: Ix(u2:99)
Ignoring empty pin current: Ix(u2:50)
Ignoring empty pin current: Ix(u2:28)
Ignoring empty pin current: Ix(u3:1)
Ignoring empty pin current: Ix(u3:2)
Ignoring empty pin current: Ix(u3:99)
Ignoring empty pin current: Ix(u3:50)
Ignoring empty pin current: Ix(u3:28)
Ignoring empty pin current: Ix(u5:1)
Ignoring empty pin current: Ix(u5:2)
Ignoring empty pin current: Ix(u5:99)
Ignoring empty pin current: Ix(u5:50)
Ignoring empty pin current: Ix(u5:28)
Ignoring empty pin current: Ix(u11:1)
Ignoring empty pin current: Ix(u11:2)
Ignoring empty pin current: Ix(u11:3)
Early termination of direct N-R iteration.
Direct Newton iteration failed to find .op point.  (Use ".option noopiter" to skip.)
Starting Gmin stepping
Increasing initial diagonal Gmin to 100
Gmin = 100
Gmin = 10.7374
vernier = 0.5
vernier = 0.25
vernier = 0.125
Gmin = 4.13554
vernier = 0.0625
vernier = 0.03125
vernier = 0.015625
vernier = 0.0208333
Gmin = 4.16077
vernier = 0.0277778
Gmin = 3.91621
vernier = 0.0138889
vernier = 0.0185185
vernier = 0.00925925
Gmin = 3.85777
vernier = 0.0123457
vernier = 0.00617283
vernier = 0.00308642
Gmin = 3.80463
vernier = 0.00411522
Gmin = 3.76958
vernier = 0.00548696
vernier = 0.00731595
Gmin = 3.71148
vernier = 0.00975459
vernier = 0.0048773
vernier = 0.00243865
Gmin = 3.67325
vernier = 0.00325153
vernier = 0.00162576
Gmin = 3.65686
vernier = 0.00216769
vernier = 0.00289025
Gmin = 3.63678
vernier = 0.00385366
Gmin = 3.60539
vernier = 0.00513821
vernier = 0.00685095
Gmin = 3.55332
vernier = 0.0091346
vernier = 0.0121795
Gmin = 3.47187
vernier = 0.0162393
Gmin = 3.34753
vernier = 0.0216524
vernier = 0.0108262
Gmin = 3.24079
vernier = 0.00541309
vernier = 0.00270655
vernier = 0.00135327
Gmin = 3.24407
vernier = 0.00180436
vernier = 0.00240582
Gmin = 3.22754
vernier = 0.00320776
vernier = 0.00427701
Gmin = 3.20134
vernier = 0.00570267
Gmin = 3.16055
vernier = 0.00760356
vernier = 0.00380178
vernier = 0.00190089
Gmin = 3.13812
vernier = 0.00253452
vernier = 0.00337936
Gmin = 3.11798
vernier = 0.00450581
Gmin = 3.08654
vernier = 0.00600775
vernier = 0.00801033
vernier = 0.00400516
Gmin = 3.04666
vernier = 0.00200258
vernier = 0.00267011
Gmin = 3.03297
vernier = 0.00356014
vernier = 0.00474686
Gmin = 3.00722
vernier = 0.00632914
Gmin = 2.9659
vernier = 0.00843885
vernier = 0.0112518
Gmin = 2.89947
vernier = 0.0150024
vernier = 0.0200032
Gmin = 2.79729
vernier = 0.0100016
Gmin = 2.71477
vernier = 0.0133355
vernier = 0.0177806
Gmin = 2.61937
vernier = 0.0088903
vernier = 0.00444515
vernier = 0.00222258
Gmin = 2.58904
vernier = 0.00296343
Gmin = 2.57184
vernier = 0.00395124
vernier = 0.00526832
Gmin = 2.54322
vernier = 0.00702443
vernier = 0.0093659
Gmin = 2.49826
vernier = 0.0124879
Gmin = 2.42914
vernier = 0.0166505
vernier = 0.0222006
Gmin = 2.31747
vernier = 0.0111003
vernier = 0.00555016
vernier = 0.00277508
Gmin = 2.2967
vernier = 0.00370011
vernier = 0.00185005
vernier = 0.000925027
vernier = 0.000462513
Gmin = 2.2906
vernier = 0.000616684
vernier = 0.000822246
Gmin = 2.28701
vernier = 0.00109633
Gmin = 2.28138
vernier = 0.00146177
vernier = 0.00194903
Gmin = 2.27195
vernier = 0.0025987
vernier = 0.00346493
Gmin = 2.257
vernier = 0.00461991
Gmin = 2.23367
vernier = 0.00615988
vernier = 0.00821317
Gmin = 2.19506
vernier = 0.00410658
vernier = 0.00547544
Gmin = 2.17489
vernier = 0.00730059
vernier = 0.00973411
Gmin = 2.13721
vernier = 0.0129788
vernier = 0.00648941
Gmin = 2.09097
vernier = 0.00865254
Gmin = 2.05181
vernier = 0.0115367
vernier = 0.00576836
vernier = 0.00288418
Gmin = 2.03122
vernier = 0.00144209
vernier = 0.00192279
Gmin = 2.02464
vernier = 0.00256371
vernier = 0.00341828
Gmin = 2.01225
vernier = 0.00455771
Gmin = 1.9923
vernier = 0.00607695
vernier = 0.00810259
vernier = 0.0040513
Gmin = 1.968
vernier = 0.00540173
Gmin = 1.94489
vernier = 0.0072023
vernier = 0.00960307
Gmin = 1.90765
vernier = 0.0128041
vernier = 0.0170721
Gmin = 1.85011
vernier = 0.00853606
vernier = 0.00426803
Gmin = 1.82078
vernier = 0.0056907
Gmin = 1.79763
vernier = 0.0075876
vernier = 0.0101168
Gmin = 1.75944
vernier = 0.0134891
vernier = 0.0179854
Gmin = 1.70024
vernier = 0.0239805
Gmin = 1.61117
vernier = 0.0319741
vernier = 0.0426321
Gmin = 1.47224
vernier = 0.0568427
vernier = 0.0757903
Gmin = 1.27555
vernier = 0.0378951
vernier = 0.0505268
Gmin = 1.15735
vernier = 0.0673691
vernier = 0.0336846
vernier = 0.0168423
vernier = 0.00842114
Gmin = 1.08466
vernier = 0.0112282
Gmin = 1.05764
vernier = 0.0149709
vernier = 0.00748545
Gmin = 1.03612
vernier = 0.0099806
vernier = 0.0049903
vernier = 0.00665373
vernier = 0.00332687
Gmin = 1.02883
vernier = 0.00443582
vernier = 0.00221791
Gmin = 1.02314
vernier = 0.00295721
vernier = 0.00147861
vernier = 0.00197147
Gmin = 1.01968
vernier = 0.000985737
vernier = 0.00131432
vernier = 0.000657158
Gmin = 1.01826
vernier = 0.000876211
Gmin = 1.01625
vernier = 0.00116828
vernier = 0.00058414
Gmin = 1.01462
vernier = 0.000778853
vernier = 0.00103847
vernier = 0.000519236
Gmin = 1.01317
vernier = 0.000692314
vernier = 0.000519235
Gmin = 1.01195
vernier = 0.000692314
vernier = 0.000519235
Gmin = 1.01085
Gmin = 0
Gmin stepping failed

Starting source stepping with srcstepmethod=0
Source Step = 3.0303%
vernier = 0.25
Source Step = 1.6572%
Source Step = 1.83475%
Source Step = 1.95312%
Source Step = 2.0419%
Source Step = 2.0715%
Source Step = 2.10109%
Source Step = 2.13068%
Source Step = 2.16027%
vernier = 0.00146484
Source Step = 2.19135%
Source Step = 2.23574%
Source Step = 2.28013%
Source Step = 2.32451%
Source Step = 2.3689%
Source Step = 2.41329%
vernier = 0.00219727
Source Step = 2.47988%
Source Step = 2.54646%
Source Step = 2.61304%
Source Step = 2.67963%
Source Step = 2.74621%
vernier = 0.0032959
Source Step = 2.84276%
Starting source stepping with srcstepmethod=1
Source Step = 3.0303%
Source Step = 33.3333%
Source Step = 63.6364%
Source Step = 93.9394%
Source Step = 100%
Singular matrix:  Check node ldoa:u3:5
   Iteration No. 108
Singular matrix:  Check node ldoa:u3:6
   Iteration No. 1
Singular matrix:  Check node ldoa:u3:6
   Iteration No. 1
Singular matrix:  Check nodes m:ldoa:3#gate and ldoa:u3:6
   Iteration No. 1
Source Step = 100%
Singular matrix:  Check nodes ldoa:u3:6 and ldoa:u2:6
   Iteration No. 1
Singular matrix:  Check nodes ldoa:u3:6 and ldoa:u2:6
   Iteration No. 1
Singular matrix:  Check nodes ldoa:u3:6 and ldoa:u2:6
   Iteration No. 1
Singular matrix:  Check nodes ldoa:u3:6 and ldoa:u2:6
   Iteration No. 1
Singular matrix:  Check nodes m:ldoa:3#gate and ldoa:u2:6
   Iteration No. 1
Source stepping failed

Pseudo Transient succeeded in finding the operating point at 207.256 ms.
Semiconductor Device Operating Points:
                        --- Diodes ---
Name:   d:ldoa:u10:18  d:ldoa:u10:19 d:ldoa:u10:9  d:ldoa:u10:16 d:ldoa:u10:17
Model: ldoa:u10:dbiasc ldoa:u10:desd ldoa:u10:desd ldoa:u10:desd ldoa:u10:desd
Id:       -7.99e-07      -1.39e-09     -4.96e-09     -1.22e-09     -5.13e-09
Vd:       -1.67e-01      -1.39e+00     -4.96e+00     -1.22e+00     -5.13e+00
Req:       1.75e-05       1.00e-09      1.00e-09      1.00e-09      1.00e-09
CAP:       0.00e+00       0.00e+00      0.00e+00      0.00e+00      0.00e+00

Name:  d:ldoa:u10:15 d:ldoa:u10:14 d:ldoa:u10:11   d:ldoa:u10:8    d:ldoa:u10:4
Model: ldoa:u10:desd ldoa:u10:desd ldoa:u10:dburn ldoa:u10:dbiasf ldoa:u10:dbiasf
Id:      -6.35e-09     -7.61e-14      3.56e-03        4.37e-08        1.22e-09
Vd:      -6.35e+00     -7.61e-05      6.35e+00        1.39e+00        1.22e+00
Req:      1.00e-09      1.00e-09      1.00e-02        3.33e-06        1.00e-09
CAP:      0.00e+00      0.00e+00      0.00e+00        0.00e+00        0.00e+00

Name:   d:ldoa:u10:7    d:ldoa:u10:2    d:ldoa:u10:1   d:ldoa:u10:5      d4
Model: ldoa:u10:dbiasr ldoa:u10:dbiasr ldoa:u10:dvgain ldoa:u10:dlat      d
Id:        1.20e-06        1.20e-06        1.53e-06      -9.96e-05     1.29e-02
Vd:        4.96e+00        5.13e+00        1.71e-01      -9.96e-01     7.21e-01
Req:       1.00e-05        1.00e-05        1.00e-05       1.00e-04     2.00e+00
CAP:       0.00e+00        0.00e+00        0.00e+00       0.00e+00     0.00e+00

Name:      d3      d:ldoa:§led_ovlo1 d:ldoa:§led_uvlo  d:ldoa:u9:18  d:ldoa:u9:19
Model:      d              d                d         ldoa:u9:dbiasc ldoa:u9:desd
Id:      9.22e-17       0.00e+00         9.22e-17        6.84e-07     -1.14e-09
Vd:      6.65e-05       0.00e+00         6.65e-05        5.82e-02     -1.14e+00
Req:     7.21e+11       7.21e+11         7.21e+11        1.75e-05      1.00e-09
CAP:     0.00e+00       0.00e+00         0.00e+00        0.00e+00      0.00e+00

Name:  d:ldoa:u9:9  d:ldoa:u9:16 d:ldoa:u9:17 d:ldoa:u9:15 d:ldoa:u9:14
Model: ldoa:u9:desd ldoa:u9:desd ldoa:u9:desd ldoa:u9:desd ldoa:u9:desd
Id:     -5.21e-09    -1.20e-09    -5.15e-09    -6.65e-14    -6.35e-09
Vd:     -5.21e+00    -1.20e+00    -5.15e+00    -6.65e-05    -6.35e+00
Req:     1.00e-09     1.00e-09     1.00e-09     1.00e-09     1.00e-09
CAP:     0.00e+00     0.00e+00     0.00e+00     0.00e+00     0.00e+00

Name:  d:ldoa:u9:11   d:ldoa:u9:8    d:ldoa:u9:4    d:ldoa:u9:7    d:ldoa:u9:2
Model: ldoa:u9:dburn ldoa:u9:dbiasf ldoa:u9:dbiasf ldoa:u9:dbiasr ldoa:u9:dbiasr
Id:       3.56e-03      1.14e-09       1.20e-09       1.20e-06       1.20e-06
Vd:       6.35e+00      1.14e+00       1.20e+00       5.21e+00       5.15e+00
Req:      1.00e-02      1.00e-09       1.00e-09       1.00e-05       1.00e-05
CAP:      0.00e+00      0.00e+00       0.00e+00       0.00e+00       0.00e+00

Name:   d:ldoa:u9:1   d:ldoa:u9:5   d:ldoa:u8:18  d:ldoa:u8:19 d:ldoa:u8:9
Model: ldoa:u9:dvgain ldoa:u9:dlat ldoa:u8:dbiasc ldoa:u8:desd ldoa:u8:desd
Id:      -5.39e-07      8.60e-05     -7.80e-07     -1.30e-09    -5.05e-09
Vd:      -7.19e-02      8.60e-01     -1.00e-01     -1.30e+00    -5.05e+00
Req:      1.00e-05      1.00e-04      1.75e-05      1.00e-09     1.00e-09
CAP:      0.00e+00      0.00e+00      0.00e+00      0.00e+00     0.00e+00

Name:  d:ldoa:u8:16 d:ldoa:u8:17 d:ldoa:u8:15 d:ldoa:u8:14 d:ldoa:u8:11
Model: ldoa:u8:desd ldoa:u8:desd ldoa:u8:desd ldoa:u8:desd ldoa:u8:dburn
Id:     -1.20e-09    -5.15e-09    -6.35e-09    -8.08e-14      3.56e-03
Vd:     -1.20e+00    -5.15e+00    -6.35e+00    -8.08e-05      6.35e+00
Req:     1.00e-09     1.00e-09     1.00e-09     1.00e-09      1.00e-02
CAP:     0.00e+00     0.00e+00     0.00e+00     0.00e+00      0.00e+00

Name:   d:ldoa:u8:8    d:ldoa:u8:4    d:ldoa:u8:7    d:ldoa:u8:2    d:ldoa:u8:1
Model: ldoa:u8:dbiasf ldoa:u8:dbiasf ldoa:u8:dbiasr ldoa:u8:dbiasr ldoa:u8:dvgain
Id:       1.30e-09       1.20e-09       1.20e-06       1.20e-06       9.19e-07
Vd:       1.30e+00       1.20e+00       5.05e+00       5.15e+00       1.10e-01
Req:      1.00e-09       1.00e-09       1.00e-05       1.00e-05       1.00e-05
CAP:      0.00e+00       0.00e+00       0.00e+00       0.00e+00       0.00e+00

Name:  d:ldoa:u8:5  d:ldoa:u5:3 d:ldoa:u5:4 d:ldoa:u5:6 d:ldoa:u5:5
Model: ldoa:u8:dlat ldoa:u5:dx  ldoa:u5:dx  ldoa:u5:dx  ldoa:u5:dx
Id:     -9.62e-05    -2.83e-13   -2.59e-13    2.30e-05    5.89e-05
Vd:     -9.62e-01    -2.82e-01   -2.58e-01    6.17e-01    6.41e-01
Req:     1.00e-04     1.00e+12    1.00e+12    1.12e+03    4.39e+02
CAP:     0.00e+00     0.00e+00    0.00e+00    0.00e+00    0.00e+00

Name:  d:ldoa:u5:2 d:ldoa:u5:1 d:ldoa:u3:3 d:ldoa:u3:4 d:ldoa:u3:6
Model: ldoa:u5:dx  ldoa:u5:dx  ldoa:u3:dx  ldoa:u3:dx  ldoa:u3:dx
Id:      2.26e-13   -4.21e-12   -2.74e-13   -2.68e-13    3.33e-05
Vd:      1.21e-01   -4.21e+00   -2.73e-01   -2.67e-01    6.27e-01
Req:     1.95e+11    1.00e+12    1.00e+12    1.00e+12    7.77e+02
CAP:     0.00e+00    0.00e+00    0.00e+00    0.00e+00    0.00e+00

Name:  d:ldoa:u3:5 d:ldoa:u3:2 d:ldoa:u3:1 d:ldoa:u2:3 d:ldoa:u2:4
Model: ldoa:u3:dx  ldoa:u3:dx  ldoa:u3:dx  ldoa:u2:dx  ldoa:u2:dx
Id:      4.10e-05    9.86e-05   -4.74e-12   -2.65e-13   -2.77e-13
Vd:      6.32e-01    6.55e-01   -4.74e+00   -2.64e-01   -2.76e-01
Req:     6.31e+02    2.62e+02    1.00e+12    1.00e+12    1.00e+12
CAP:     0.00e+00    0.00e+00    0.00e+00    0.00e+00    0.00e+00

Name:  d:ldoa:u2:6 d:ldoa:u2:5 d:ldoa:u2:2 d:ldoa:u2:1 d:ldoa:u1:3
Model: ldoa:u2:dx  ldoa:u2:dx  ldoa:u2:dx  ldoa:u2:dx  ldoa:u1:dx
Id:      4.66e-05    2.92e-05    9.49e-14   -4.16e-12   -2.77e-13
Vd:      6.35e-01    6.23e-01    7.66e-02   -4.16e+00   -2.76e-01
Req:     5.55e+02    8.86e+02    5.72e+11    1.00e+12    1.00e+12
CAP:     0.00e+00    0.00e+00    0.00e+00    0.00e+00    0.00e+00

Name:  d:ldoa:u1:4 d:ldoa:u1:6 d:ldoa:u1:5 d:ldoa:u1:2 d:ldoa:u1:1
Model: ldoa:u1:dx  ldoa:u1:dx  ldoa:u1:dx  ldoa:u1:dx  ldoa:u1:dx
Id:     -2.65e-13    2.92e-05    4.67e-05    2.34e-08   -4.52e-12
Vd:     -2.64e-01    6.23e-01    6.35e-01    4.39e-01   -4.52e+00
Req:     1.00e+12    8.87e+02    5.54e+02    1.10e+06    1.00e+12
CAP:     0.00e+00    0.00e+00    0.00e+00    0.00e+00    0.00e+00

Name:  d:ldoa:u6:3 d:ldoa:u6:4 d:ldoa:u6:6 d:ldoa:u6:5 d:ldoa:u6:2
Model: ldoa:u6:dx  ldoa:u6:dx  ldoa:u6:dx  ldoa:u6:dx  ldoa:u6:dx
Id:     -2.55e-13   -2.87e-13    6.62e-05    2.04e-05   -1.40e-13
Vd:     -2.54e-01   -2.86e-01    6.44e-01    6.14e-01   -1.39e-01
Req:     1.00e+12    1.00e+12    3.91e+02    1.27e+03    1.00e+12
CAP:     0.00e+00    0.00e+00    0.00e+00    0.00e+00    0.00e+00

Name:  d:ldoa:u6:1
Model: ldoa:u6:dx
Id:     -3.95e-12
Vd:     -3.95e+00
Req:     1.00e+12
CAP:     0.00e+00

                        --- Bipolar Transistors ---
Name:   q:ldoa:u5:2 q:ldoa:u5:1 q:ldoa:u3:2 q:ldoa:u3:1 q:ldoa:u2:2
Model:  ldoa:u5:qx  ldoa:u5:qx  ldoa:u3:qx  ldoa:u3:qx  ldoa:u2:qx
Ib:      -4.50e-08   -4.49e-08   -8.99e-08   -1.37e-11   -4.50e-08
Ic:      -5.00e-05   -4.99e-05   -9.99e-05   -1.56e-08   -5.00e-05
Vbe:     -6.97e-01   -6.97e-01   -7.15e-01   -4.88e-01   -6.97e-01
Vbc:      4.58e+00    4.58e+00    4.72e-01    7.50e-01    5.26e-01
Vce:     -5.27e+00   -5.27e+00   -1.19e+00   -1.24e+00   -1.22e+00
BetaDC:   1.11e+03    1.11e+03    1.11e+03    1.13e+03    1.11e+03
Gm:       1.93e-03    1.93e-03    3.86e-03    6.01e-07    1.93e-03
Rpi:      5.75e+05    5.76e+05    2.88e+05    1.84e+09    5.75e+05
Rx:       0.00e+00    0.00e+00    0.00e+00    0.00e+00    0.00e+00
Ro:       1.75e+91    1.75e+91    2.18e+22    1.03e+27    1.78e+23
Cbe:      0.00e+00    0.00e+00    0.00e+00    0.00e+00    0.00e+00
Cbc:      0.00e+00    0.00e+00    0.00e+00    0.00e+00    0.00e+00
Cjs:      0.00e+00    0.00e+00    0.00e+00    0.00e+00    0.00e+00
BetaAC:   1.11e+03    1.11e+03    1.11e+03    1.11e+03    1.11e+03
Cbx:      0.00e+00    0.00e+00    0.00e+00    0.00e+00    0.00e+00
Ft:       0.00e+00    0.00e+00    0.00e+00    0.00e+00    0.00e+00

Name:   q:ldoa:u2:1 q:ldoa:u1:2 q:ldoa:u1:1 q:ldoa:u6:2 q:ldoa:u6:1
Model:  ldoa:u2:qx  ldoa:u1:qx  ldoa:u1:qx  ldoa:u6:qx  ldoa:u6:qx
Ib:      -4.49e-08   -4.50e-08   -4.49e-08   -4.50e-08   -4.49e-08
Ic:      -4.99e-05   -5.00e-05   -4.99e-05   -5.00e-05   -4.99e-05
Vbe:     -6.97e-01   -6.97e-01   -6.97e-01   -6.97e-01   -6.97e-01
Vbc:      5.26e-01    1.76e-01    1.77e-01    3.54e-01    3.54e-01
Vce:     -1.22e+00   -8.73e-01   -8.73e-01   -1.05e+00   -1.05e+00
BetaDC:   1.11e+03    1.11e+03    1.11e+03    1.11e+03    1.11e+03
Gm:       1.93e-03    1.93e-03    1.93e-03    1.93e-03    1.93e-03
Rpi:      5.76e+05    5.75e+05    5.76e+05    5.75e+05    5.76e+05
Rx:       0.00e+00    0.00e+00    0.00e+00    0.00e+00    0.00e+00
Ro:       1.78e+23    2.37e+17    2.38e+17    2.23e+20    2.24e+20
Cbe:      0.00e+00    0.00e+00    0.00e+00    0.00e+00    0.00e+00
Cbc:      0.00e+00    0.00e+00    0.00e+00    0.00e+00    0.00e+00
Cjs:      0.00e+00    0.00e+00    0.00e+00    0.00e+00    0.00e+00
BetaAC:   1.11e+03    1.11e+03    1.11e+03    1.11e+03    1.11e+03
Cbx:      0.00e+00    0.00e+00    0.00e+00    0.00e+00    0.00e+00
Ft:       0.00e+00    0.00e+00    0.00e+00    0.00e+00    0.00e+00

Name:    q:ldoa:7   q:ldoa:2n6487 q:ldoa:§tip42c  q:ldoa:9    q:ldoa:8
Model:    2n2222    ldoa:q2n6487   ldoa:tip42c     bc546b      bc546b
Ib:      -5.50e-12     3.14e-05     -5.45e-03      1.96e-05    3.84e-06
Ic:       5.49e-12     5.45e-03     -4.97e-01      1.06e-03    1.08e-03
Vbe:     -1.70e-02     4.04e-01     -7.75e-01      6.43e-01    6.41e-01
Vbc:     -5.48e+00    -1.12e-01      5.16e-01      5.73e-01    0.00e+00
Vce:      5.46e+00     5.16e-01     -1.29e+00      7.05e-02    6.41e-01
BetaDC:  -9.98e-01     1.74e+02      9.11e+01      5.43e+01    2.82e+02
Gm:       2.11e-13     2.40e-01      1.49e+01      4.09e-02    4.11e-02
Rpi:      2.48e+09     7.01e+02      4.90e+00      6.25e+03    6.82e+03
Rx:       1.00e+01     4.67e+00      1.00e-01      1.00e+00    1.00e+00
Ro:       1.93e+16     2.30e+03      2.02e+02      2.84e+02    5.69e+04
Cbe:      2.48e-11     9.78e-10      3.47e-07      6.72e-11    6.48e-11
Cbc:      3.98e-12     2.16e-10      6.33e-10      2.56e-11    2.31e-12
Cjs:      0.00e+00     0.00e+00      0.00e+00      0.00e+00    0.00e+00
BetaAC:   5.24e-04     1.68e+02      7.28e+01      2.55e+02    2.80e+02
Cbx:      0.00e+00     5.40e-11      0.00e+00      1.58e-11    1.42e-12
Ft:       2.23e+00     3.07e+07      6.81e+06      5.99e+07    9.56e+07

Name:    q:ldoa:2    q:ldoa:1    q:ldoa:4    q:ldoa:3
Model:    bc546b      bc546b     bc327-25    bc327-25
Ib:       1.69e-06    1.81e-06   -1.69e-06   -1.69e-06
Ic:       5.12e-04    5.47e-04   -5.43e-04   -5.43e-04
Vbe:      6.19e-01    6.21e-01   -5.73e-01   -5.73e-01
Vbc:     -4.26e+00   -4.32e+00    5.75e-02    0.00e+00
Vce:      4.88e+00    4.94e+00   -6.31e-01   -5.73e-01
BetaDC:   3.02e+02    3.03e+02    3.22e+02    3.22e+02
Gm:       1.95e-02    2.09e-02    2.11e-02    2.11e-02
Rpi:      1.55e+04    1.45e+04    1.58e+04    1.57e+04
Rx:       1.00e+00    1.00e+00    7.13e-01    7.13e-01
Ro:       1.29e+05    1.21e+05    5.49e+04    5.48e+04
Cbe:      4.55e-11    4.68e-11    9.62e-11    9.62e-11
Cbc:      1.12e-12    1.11e-12    1.17e-11    1.22e-11
Cjs:      0.00e+00    0.00e+00    0.00e+00    0.00e+00
BetaAC:   3.02e+02    3.02e+02    3.33e+02    3.32e+02
Cbx:      6.87e-13    6.85e-13    1.38e-11    1.44e-11
Ft:       6.57e+07    6.83e+07    2.76e+07    2.74e+07

                        --- VDMOSFET Transistors ---
Name:      m:ldoa:u10:4 m:ldoa:u10:3 m:ldoa:u9:4 m:ldoa:u9:3 m:ldoa:u8:4
Model:     ldoa:u10:pi  ldoa:u10:ni  ldoa:u9:pi  ldoa:u9:ni  ldoa:u8:pi
Id:         -1.84e-05     6.36e-12    -6.36e-12    5.19e-06   -1.95e-05
Vgs:        -5.89e+00    -2.15e-01     1.99e-01    6.37e+00   -5.89e+00
Vds:        -7.61e-05     6.35e+00    -6.35e+00    6.65e-05   -8.08e-05
Vth:        -6.00e-01     6.00e-01    -6.00e-01    6.00e-01   -6.00e-01
Gm:          3.47e-06     0.00e+00     0.00e+00    8.99e-07    3.69e-06
Gds:         2.41e-01     0.00e+00     0.00e+00    2.08e-01    2.41e-01
Cgs:         0.00e+00     0.00e+00     0.00e+00    0.00e+00    0.00e+00
Cgd:         0.00e+00     0.00e+00     0.00e+00    0.00e+00    0.00e+00
