Circuit: * C:\Users\joaqu\Desktop\Circuit-Design\LDOA_Regulator\Regulador_LDOA_v2_Cuasi_Darlington_selector_prueba.asc

Early termination of direct N-R iteration.
Direct Newton iteration failed to find .op point.  (Use ".option noopiter" to skip.)
Starting Gmin stepping
Gmin = 10
vernier = 0.5
vernier = 0.25
vernier = 0.125
Gmin = 5.5165
vernier = 0.0625
vernier = 0.03125
vernier = 0.015625
vernier = 0.0078125
Gmin = 5.48432
vernier = 0.00390625
vernier = 0.00195313
vernier = 0.000976563
vernier = 0.000488281
Gmin = 0
Gmin stepping failed

Starting source stepping with srcstepmethod=0
Source Step = 3.0303%
Source Step = 33.3333%
Source Step = 63.6364%
Source Step = 93.9394%
Source stepping succeeded in finding the operating point.

Semiconductor Device Operating Points:
                        --- Diodes ---
Name:    d:u5:p      d:u5:ln     d:u5:lp     d:u5:e      d:u5:c
Model:    u5:dx       u5:dx       u5:dx       u5:dx       u5:dx
Id:     -3.00e-11   -2.50e-11   -2.50e-11   -1.31e-11   -1.25e-11
Vd:     -3.00e+01   -2.50e+01   -2.50e+01   -1.31e+01   -1.25e+01
Req:     1.00e+12    1.00e+12    1.00e+12    1.00e+12    1.00e+12
CAP:     0.00e+00    0.00e+00    0.00e+00    0.00e+00    0.00e+00

Name:    d:u4:p      d:u4:ln     d:u4:lp     d:u4:e      d:u4:c
Model:    u4:dx       u4:dx       u4:dx       u4:dx       u4:dx
Id:     -3.00e-11   -2.50e-11   -2.50e-11   -1.29e-11   -1.27e-11
Vd:     -3.00e+01   -2.50e+01   -2.50e+01   -1.29e+01   -1.27e+01
Req:     1.00e+12    1.00e+12    1.00e+12    1.00e+12    1.00e+12
CAP:     0.00e+00    0.00e+00    0.00e+00    0.00e+00    0.00e+00

Name:    d:u3:p      d:u3:ln     d:u3:lp     d:u3:e      d:u3:c
Model:    u3:dx       u3:dx       u3:dx       u3:dx       u3:dx
Id:     -3.00e-11   -2.50e-11   -2.50e-11   -1.30e-11   -1.26e-11
Vd:     -3.00e+01   -2.50e+01   -2.50e+01   -1.30e+01   -1.26e+01
Req:     1.00e+12    1.00e+12    1.00e+12    1.00e+12    1.00e+12
CAP:     0.00e+00    0.00e+00    0.00e+00    0.00e+00    0.00e+00

Name:    d:u2:p      d:u2:ln     d:u2:lp     d:u2:e      d:u2:c
Model:    u2:dx       u2:dx       u2:dx       u2:dx       u2:dx
Id:     -3.00e-11   -2.50e-11   -2.50e-11   -1.46e-11   -1.10e-11
Vd:     -3.00e+01   -2.50e+01   -2.50e+01   -1.46e+01   -1.10e+01
Req:     1.00e+12    1.00e+12    1.00e+12    1.00e+12    1.00e+12
CAP:     0.00e+00    0.00e+00    0.00e+00    0.00e+00    0.00e+00

Name:    d:u1:p      d:u1:ln     d:u1:lp     d:u1:e      d:u1:c
Model:    u1:dx       u1:dx       u1:dx       u1:dx       u1:dx
Id:     -3.00e-11   -2.50e-11   -2.50e-11   -1.32e-11   -1.24e-11
Vd:     -3.00e+01   -2.50e+01   -2.50e+01   -1.32e+01   -1.24e+01
Req:     1.00e+12    1.00e+12    1.00e+12    1.00e+12    1.00e+12
CAP:     0.00e+00    0.00e+00    0.00e+00    0.00e+00    0.00e+00

                        --- Bipolar Transistors ---
Name:       q7          q6          q2          q1          q5
Model:    2n2222      2n2222      2n2222      2n2222      2n2907
Ib:       2.17e-05    1.87e-05   -1.48e-12    5.22e-06   -3.84e-03
Ic:       1.06e-03    3.84e-03    1.05e-12    1.08e-03   -4.24e-01
Vbe:      6.59e-01    6.90e-01   -4.31e-01    6.57e-01   -9.57e-01
Vbc:      5.76e-01   -4.23e+00   -1.05e+00   -3.99e+00    4.92e+00
Vce:      8.22e-02    4.92e+00    6.17e-01    4.64e+00   -5.88e+00
BetaDC:   4.88e+01    2.06e+02   -7.10e-01    2.07e+02    1.10e+02
Gm:       4.13e-02    1.47e-01    2.27e-20    4.17e-02    1.04e+01
Rpi:      4.57e+03    1.39e+03    1.00e+12    4.96e+03    6.73e+00
Rx:       1.00e+01    1.00e+01    1.00e+01    1.00e+01    1.00e+01
Ro:       5.41e+02    2.71e+04    1.72e+23    9.61e+04    2.95e+02
Cbe:      5.65e-11    9.88e-11    2.15e-11    5.59e-11    5.67e-09
Cbc:      1.98e-10    4.28e-12    6.00e-12    4.35e-12    4.12e-12
Cjs:      0.00e+00    0.00e+00    0.00e+00    0.00e+00    0.00e+00
BetaAC:   1.89e+02    2.03e+02    2.27e-08    2.06e+02    7.00e+01
Cbx:      0.00e+00    0.00e+00    0.00e+00    0.00e+00    0.00e+00
Ft:       2.59e+07    2.26e+08    5.78e-03    1.10e+08    2.92e+08

Name:       q4          q3
Model:    2n2907      2n2907
Ib:      -4.18e-06   -4.31e-06
Ic:      -1.08e-03   -1.07e-03
Vbe:     -6.56e-01   -6.57e-01
Vbc:      4.03e+00    0.00e+00
Vce:     -4.68e+00   -6.57e-01
BetaDC:   2.57e+02    2.49e+02
Gm:       4.14e-02    4.13e-02
Rpi:      6.19e+03    6.00e+03
Rx:       1.00e+01    1.00e+01
Ro:       1.15e+05    1.12e+05
Cbe:      6.36e-11    6.36e-11
Cbc:      4.34e-12    8.00e-12
Cjs:      0.00e+00    0.00e+00
BetaAC:   2.57e+02    2.48e+02
Cbx:      0.00e+00    0.00e+00
Ft:       9.70e+07    9.19e+07

                        --- JFET Transistors ---
Name:    j:u5:2      j:u5:1      j:u4:2      j:u4:1      j:u3:2
Model:    u5:jx       u5:jx       u4:jx       u4:jx       u3:jx
Id:     -9.76e-05   -9.76e-05   -9.77e-05   -9.77e-05   -9.76e-05
Vgs:     3.99e-01    3.99e-01    3.99e-01    3.99e-01    3.99e-01
Vds:    -1.44e+01   -1.44e+01   -1.43e+01   -1.43e+01   -1.45e+01
Gm:      3.25e-04    3.25e-04    3.25e-04    3.25e-04    3.25e-04
Gds:     0.00e+00    0.00e+00    0.00e+00    0.00e+00    0.00e+00
Cgs:     0.00e+00    0.00e+00    0.00e+00    0.00e+00    0.00e+00
Cgd:     0.00e+00    0.00e+00    0.00e+00    0.00e+00    0.00e+00

Name:    j:u3:1      j:u2:2      j:u2:1      j:u1:2      j:u1:1
Model:    u3:jx       u2:jx       u2:jx       u1:jx       u1:jx
Id:     -9.76e-05   -9.75e-05   -9.75e-05   -9.75e-05   -9.75e-05
Vgs:     3.99e-01    3.99e-01    3.99e-01    3.99e-01    3.99e-01
Vds:    -1.45e+01   -1.46e+01   -1.46e+01   -1.47e+01   -1.47e+01
Gm:      3.25e-04    3.25e-04    3.25e-04    3.25e-04    3.25e-04
Gds:     0.00e+00    0.00e+00    0.00e+00    0.00e+00    0.00e+00
Cgs:     0.00e+00    0.00e+00    0.00e+00    0.00e+00    0.00e+00
Cgd:     0.00e+00    0.00e+00    0.00e+00    0.00e+00    0.00e+00

                        --- VDMOSFET Transistors ---
Name:          m1
Model:       ao6408
Id:          1.13e-04
Vgs:         5.00e+00
Vds:         1.26e-06
Vth:         1.00e+00
Gm:          2.82e-05
Gds:         3.60e+02
Cgs:         1.00e-09
Cgd:         7.00e-10
Cbody:       3.60e-10


