Circuit: * C:\Users\joaqu\Desktop\Circuit-Design\LDOA_Regulator\Regulador_LDOA_v5.asc

WARNING: Node NC_01 is floating.

WARNING: Less than two connections to node NC_01.  This node is used by L4.
Ignoring empty pin current: Ix(u2:1)
Ignoring empty pin current: Ix(u2:2)
Ignoring empty pin current: Ix(u3:1)
Ignoring empty pin current: Ix(u3:2)
Ignoring empty pin current: Ix(u4:1)
Ignoring empty pin current: Ix(u4:2)
Ignoring empty pin current: Ix(u5:1)
Ignoring empty pin current: Ix(u5:2)
Ignoring empty pin current: Ix(u1:1)
Ignoring empty pin current: Ix(u1:2)
Direct Newton iteration failed to find .op point.  (Use ".option noopiter" to skip.)
Starting Gmin stepping
Gmin = 10
Gmin = 1.07374
Gmin = 0.115292
Gmin = 0.0123794
Gmin = 0.00132923
Gmin = 0.000142725
Gmin = 1.5325e-005
Gmin = 1.6455e-006
Gmin = 1.76685e-007
Gmin = 1.89714e-008
Gmin = 2.03704e-009
Gmin = 2.18725e-010
Gmin = 2.34854e-011
Gmin = 2.52173e-012
Gmin = 2.70769e-013
Gmin = 0
Gmin stepping succeeded in finding the operating point.

Semiconductor Device Operating Points:
                        --- Bipolar Transistors ---
Name:       q7        q2n6487    q§tip42c       q9          q8
Model:    2n2222      q2n6487     tip42c      bc546b      bc546b
Ib:       5.47e-06    1.81e-05   -4.44e-03    3.93e-06    3.93e-06
Ic:       1.09e-03    4.44e-03   -4.41e-01    1.11e-03    1.11e-03
Vbe:      6.58e-01    3.92e-01   -7.70e-01    6.42e-01    6.42e-01
Vbc:      1.77e-01   -5.10e+00    5.49e+00    8.17e-02    0.00e+00
Vce:      4.81e-01    5.49e+00   -6.26e+00    5.60e-01    6.42e-01
BetaDC:   1.99e+02    2.45e+02    9.94e+01    2.82e+02    2.82e+02
Gm:       4.19e-02    1.98e-01    1.36e+01    4.21e-02    4.21e-02
Rpi:      4.73e+03    1.21e+03    6.02e+00    6.65e+03    6.65e+03
Rx:       1.00e+01    4.68e+00    1.00e-01    1.00e+00    1.00e+00
Ro:       9.18e+04    3.99e+03    2.39e+02    5.56e+04    5.56e+04
Cbe:      5.60e-11    9.48e-10    3.17e-07    6.55e-11    6.55e-11
Cbc:      8.74e-12    1.18e-10    2.21e-10    2.47e-12    2.31e-12
Cjs:      0.00e+00    0.00e+00    0.00e+00    0.00e+00    0.00e+00
BetaAC:   1.98e+02    2.40e+02    8.20e+01    2.80e+02    2.80e+02
Cbx:      0.00e+00    2.94e-11    0.00e+00    1.52e-12    1.42e-12
Ft:       1.03e+08    2.88e+07    6.83e+06    9.64e+07    9.68e+07

Name:       q2          q1          q4          q3
Model:    bc546b      bc546b     bc327-25    bc327-25
Ib:       1.76e-13    3.67e-06   -2.91e-06   -3.34e-06
Ic:      -3.28e-13    1.10e-03   -1.11e-03   -1.10e-03
Vbe:     -3.77e-02    6.40e-01   -5.88e-01   -5.92e-01
Vbc:      4.12e-02   -4.04e+00    4.76e+00    0.00e+00
Vce:     -7.89e-02    4.68e+00   -5.35e+00   -5.92e-01
BetaDC:  -1.86e+00    3.01e+02    3.79e+02    3.28e+02
Gm:      -4.28e-12    4.19e-02    4.29e-02    4.26e-02
Rpi:      9.66e+11    7.13e+03    9.07e+03    7.89e+03
Rx:       1.00e+00    1.00e+00    6.75e-01    6.66e-01
Ro:       2.22e+11    5.95e+04    3.12e+04    2.71e+04
Cbe:      1.34e-11    6.46e-11    1.14e-10    1.14e-10
Cbc:      2.39e-12    1.13e-12    4.29e-12    1.22e-11
Cjs:      0.00e+00    0.00e+00    0.00e+00    0.00e+00
BetaAC:  -4.14e+00    2.99e+02    3.89e+02    3.36e+02
Cbx:      1.47e-12    6.97e-13    5.05e-12    1.44e-11
Ft:       3.85e-02    1.01e+08    5.54e+07    4.82e+07

                        --- VDMOSFET Transistors ---
Name:          m1
Model:       2n7002
Id:          5.20e-04
Vgs:         5.00e+00
Vds:         1.11e-03
Vth:         1.60e+00
Gm:          1.53e-04
Gds:         7.22e-01
Cgs:         5.00e-11
Cgd:         8.00e-11
Cbody:       5.00e-11



vo1rc: v(vo)=5.02584 at 100
vo2rc: v(vo)=5.01511 at 10
io1rc: i(rl)=0.0502584 at 100
io2rc: i(rl)=0.501511 at 10
regcar: (-(vo2rc-vo1rc)/(io2rc-io1rc))=0.0237693


Date: Fri May 05 16:22:43 2023
Total elapsed time: 15.490 seconds.

tnom = 27
temp = 27
method = trap
totiter = 25
traniter = 0
tranpoints = 0
accept = 0
rejected = 0
matrix size = 74
fillins = 59
solver = Normal
Matrix Compiler1: 7.43 KB object code size
Matrix Compiler2: 6.93 KB object code size
