Circuit: * D:\Uli\FIUBA\Materias\Diseño de Circuitos\TP\Circuit-Design\LDOA_Regulator\Regulador_LDOA_v3_Cuasi_Darlington_selector.asc

Ignoring empty pin current: Ix(u2:1)
Ignoring empty pin current: Ix(u2:2)
Ignoring empty pin current: Ix(u3:1)
Ignoring empty pin current: Ix(u3:2)
Ignoring empty pin current: Ix(u4:1)
Ignoring empty pin current: Ix(u4:2)
Ignoring empty pin current: Ix(u5:1)
Ignoring empty pin current: Ix(u5:2)
Ignoring empty pin current: Ix(u1:1)
Ignoring empty pin current: Ix(u1:2)
Direct Newton iteration failed to find .op point.  (Use ".option noopiter" to skip.)
Starting Gmin stepping
Gmin = 10
Gmin = 1.07374
Gmin = 0.115292
Gmin = 0.0123794
Gmin = 0.00132923
Gmin = 0.000142725
vernier = 0.5
Gmin = 2.9562e-005
vernier = 0.25
vernier = 0.125
vernier = 0.166667
Gmin = 2.6279e-005
vernier = 0.222222
Gmin = 1.61364e-005
vernier = 0.296296
vernier = 0.395061
Gmin = 7.21079e-006
vernier = 0.526748
vernier = 0.702331
Gmin = 2.05735e-006
vernier = 0.936441
Gmin = 3.0491e-007
vernier = 1
Gmin = 3.27395e-008
Gmin = 3.51537e-009
Gmin = 3.7746e-010
Gmin = 4.05295e-011
Gmin = 4.35182e-012
Gmin = 4.67273e-013
Gmin = 0
Gmin stepping succeeded in finding the operating point.

Semiconductor Device Operating Points:
                        --- Bipolar Transistors ---
Name:       q7          q8          q6          q2          q1
Model:    2n2222      bc546b      bc546b      bc546b      bc546b
Ib:       4.79e-06    1.11e-04    2.49e-06   -1.29e-12    3.17e-06
Ic:       9.56e-04    9.59e-04    7.59e-04    7.30e-13    9.56e-04
Vbe:      6.54e-01    6.54e-01    6.30e-01   -5.56e-01    6.36e-01
Vbc:     -1.73e-02    6.25e-01   -4.92e+00   -6.64e-01   -4.11e+00
Vce:      6.72e-01    2.89e-02    5.55e+00    1.08e-01    4.75e+00
BetaDC:   1.99e+02    8.62e+00    3.05e+02   -5.66e-01    3.01e+02
Gm:       3.68e-02    3.99e-02    2.89e-02    5.03e-22    3.64e-02
Rpi:      5.40e+03    4.20e+03    1.05e+04    1.00e+12    8.25e+03
Rx:       1.00e+01    1.00e+00    1.00e+00    1.00e+00    1.00e+00
Ro:       1.05e+05    3.91e+01    8.77e+04    1.31e+23    6.88e+04
Cbe:      5.39e-11    8.12e-11    5.42e-11    1.11e-11    6.04e-11
Cbc:      7.94e-12    3.10e-11    1.08e-12    1.73e-12    1.13e-12
Cjs:      0.00e+00    0.00e+00    0.00e+00    0.00e+00    0.00e+00
BetaAC:   1.99e+02    1.68e+02    3.04e+02    5.03e-10    3.00e+02
Cbx:      0.00e+00    1.91e-11    6.61e-13    1.06e-12    6.94e-13
Ft:       9.48e+07    4.84e+07    8.23e+07    1.15e-02    9.30e+07

Name:       q5          q4          q3
Model:   bc327-25    bc327-25    bc327-25
Ib:      -7.59e-04   -2.54e-06   -2.91e-06
Ic:      -2.09e-01   -9.58e-04   -9.50e-04
Vbe:     -7.63e-01   -5.84e-01   -5.88e-01
Vbc:      5.55e+00    4.64e+00    0.00e+00
Vce:     -6.31e+00   -5.23e+00   -5.88e-01
BetaDC:   2.76e+02    3.77e+02    3.27e+02
Gm:       6.06e+00    3.72e-02    3.69e-02
Rpi:      3.40e+01    1.04e+04    9.09e+03
Rx:       5.14e-01    6.84e-01    6.75e-01
Ro:       1.66e+02    3.59e+04    3.13e+04
Cbe:      5.83e-09    1.09e-10    1.09e-10
Cbc:      4.03e-12    4.33e-12    1.22e-11
Cjs:      0.00e+00    0.00e+00    0.00e+00
BetaAC:   2.06e+02    3.87e+02    3.35e+02
Cbx:      4.75e-12    5.11e-12    1.44e-11
Ft:       1.65e+08    4.99e+07    4.32e+07

                        --- VDMOSFET Transistors ---
Name:          m1
Model:       ao6408
Id:          1.46e-09
Vgs:         0.00e+00
Vds:         3.42e-03
Vth:         1.00e+00
Gm:          1.85e-08
Gds:         0.00e+00
Cgs:         1.00e-09
Cgd:         5.24e-10
Cbody:       3.59e-10



vo1rc: v(vo)=3.32841 at 100
vo2rc: v(vo)=3.32743 at 10
io1rc: i(rl)=0.0332841 at 100
io2rc: i(rl)=0.332743 at 10
regcar: (-(vo2rc-vo1rc)/(io2rc-io1rc))=0.00326825


Date: Fri Apr 21 13:18:24 2023
Total elapsed time: 11.160 seconds.

tnom = 27
temp = 27
method = trap
totiter = 525
traniter = 0
tranpoints = 0
accept = 0
rejected = 0
matrix size = 60
fillins = 65
solver = Normal
Matrix Compiler1: 7.41 KB object code size
Matrix Compiler2: 6.09 KB object code size  0.4/0.4/[0.3]

