Circuit: * C:\Users\joaqu\Desktop\Circuit-Design\LDOA_Regulator\Regulador_LDOA_v3_Cuasi_Darlington_selector.asc

Ignoring empty pin current: Ix(u2:1)
Ignoring empty pin current: Ix(u2:2)
Ignoring empty pin current: Ix(u3:1)
Ignoring empty pin current: Ix(u3:2)
Ignoring empty pin current: Ix(u4:1)
Ignoring empty pin current: Ix(u4:2)
Ignoring empty pin current: Ix(u5:1)
Ignoring empty pin current: Ix(u5:2)
Ignoring empty pin current: Ix(u1:1)
Ignoring empty pin current: Ix(u1:2)
Direct Newton iteration failed to find .op point.  (Use ".option noopiter" to skip.)
Starting Gmin stepping
Gmin = 10
Gmin = 1.07374
Gmin = 0.115292
Gmin = 0.0123794
Gmin = 0.00132923
Gmin = 0.000142725
vernier = 0.5
vernier = 0.25
Gmin = 4.15716e-005
vernier = 0.125
vernier = 0.0625
vernier = 0.03125
Gmin = 3.82233e-005
vernier = 0.0416667
vernier = 0.0555555
Gmin = 3.44021e-005
vernier = 0.074074
Gmin = 2.91615e-005
vernier = 0.0987653
vernier = 0.131687
Gmin = 2.213e-005
vernier = 0.175583
vernier = 0.23411
Gmin = 1.43054e-005
vernier = 0.312147
Gmin = 7.25923e-006
vernier = 0.416196
vernier = 0.554928
Gmin = 2.38383e-006
vernier = 0.739903
vernier = 0.986537
Gmin = 4.27264e-007
vernier = 1
Gmin = 4.63746e-008
Gmin = 4.97943e-009
Gmin = 5.34663e-010
Gmin = 5.7409e-011
Gmin = 6.16424e-012
Gmin = 6.6188e-013
Gmin = 0
Gmin stepping succeeded in finding the operating point.

Semiconductor Device Operating Points:
                        --- Bipolar Transistors ---
Name:       q7          q5          q8          q6          q2
Model:    2n2222     2sar554p     bc546b      bc546b      bc546b
Ib:       4.79e-06   -8.84e-04    1.11e-04    2.89e-06   -1.30e-12
Ic:       9.55e-04   -2.08e-01    9.59e-04    8.84e-04    7.36e-13
Vbe:      6.54e-01   -7.06e-01    6.54e-01    6.34e-01   -5.59e-01
Vbc:     -2.12e-02    5.60e+00    6.25e-01   -4.97e+00   -6.70e-01
Vce:      6.75e-01   -6.31e+00    2.89e-02    5.60e+00    1.11e-01
BetaDC:   1.99e+02    2.35e+02    8.62e+00    3.05e+02   -5.67e-01
Gm:       3.68e-02    7.45e+00    3.99e-02    3.36e-02    4.56e-22
Rpi:      5.40e+03    2.94e+01    4.20e+03    9.04e+03    1.00e+12
Rx:       1.00e+01    1.73e+00    1.00e+00    1.00e+00    1.00e+00
Ro:       1.05e+05    1.69e+02    3.91e+01    7.54e+04    1.66e+23
Cbe:      5.39e-11    3.55e-09    8.12e-11    5.81e-11    1.11e-11
Cbc:      7.93e-12    1.87e-11    3.10e-11    1.07e-12    1.73e-12
Cjs:      0.00e+00    0.00e+00    0.00e+00    0.00e+00    0.00e+00
BetaAC:   1.99e+02    2.19e+02    1.68e+02    3.04e+02    4.56e-10
Cbx:      0.00e+00    0.00e+00    1.91e-11    6.59e-13    1.06e-12
Ft:       9.48e+07    3.33e+08    4.84e+07    8.95e+07    1.15e-02

Name:       q1          q4          q3
Model:    bc546b     bc327-25    bc327-25
Ib:       3.17e-06   -2.54e-06   -2.91e-06
Ic:       9.56e-04   -9.58e-04   -9.50e-04
Vbe:      6.36e-01   -5.84e-01   -5.88e-01
Vbc:     -4.11e+00    4.64e+00    0.00e+00
Vce:      4.75e+00   -5.22e+00   -5.88e-01
BetaDC:   3.01e+02    3.77e+02    3.27e+02
Gm:       3.64e-02    3.72e-02    3.69e-02
Rpi:      8.25e+03    1.04e+04    9.09e+03
Rx:       1.00e+00    6.84e-01    6.75e-01
Ro:       6.88e+04    3.59e+04    3.13e+04
Cbe:      6.04e-11    1.09e-10    1.09e-10
Cbc:      1.13e-12    4.34e-12    1.22e-11
Cjs:      0.00e+00    0.00e+00    0.00e+00
BetaAC:   3.00e+02    3.87e+02    3.35e+02
Cbx:      6.94e-13    5.11e-12    1.44e-11
Ft:       9.30e+07    4.99e+07    4.32e+07

                        --- VDMOSFET Transistors ---
Name:          m1
Model:       ao6408
Id:          4.98e-06
Vgs:         5.00e+00
Vds:         5.57e-08
Vth:         1.00e+00
Gm:          1.25e-06
Gds:         3.60e+02
Cgs:         1.00e-09
Cgd:         7.00e-10
Cbody:       3.60e-10



vo1rc: v(vo)=5.0339 at 100
vo2rc: v(vo)=5.0315 at 10
io1rc: i(rl)=0.050339 at 100
io2rc: i(rl)=0.50315 at 10
regcar: (-(vo2rc-vo1rc)/(io2rc-io1rc))=0.00529795


Date: Fri Apr 14 20:14:49 2023
Total elapsed time: 13.069 seconds.

tnom = 27
temp = 27
method = trap
totiter = 483
traniter = 0
tranpoints = 0
accept = 0
rejected = 0
matrix size = 60
fillins = 65
solver = Normal
Matrix Compiler1: 7.41 KB object code size
Matrix Compiler2: 6.09 KB object code size  0.7/1.4/[0.7]

