Circuit: * C:\Users\joaqu\Desktop\Circuit-Design\LDOA_Regulator\Regulador_LDOA_v4_Cuasi_Darlington_selector.asc

Ignoring empty pin current: Ix(u2:1)
Ignoring empty pin current: Ix(u2:2)
Ignoring empty pin current: Ix(u3:1)
Ignoring empty pin current: Ix(u3:2)
Ignoring empty pin current: Ix(u4:1)
Ignoring empty pin current: Ix(u4:2)
Ignoring empty pin current: Ix(u5:1)
Ignoring empty pin current: Ix(u5:2)
Ignoring empty pin current: Ix(u1:1)
Ignoring empty pin current: Ix(u1:2)
Direct Newton iteration for .op point succeeded.
Semiconductor Device Operating Points:
                        --- Bipolar Transistors ---
Name:       q7          q5          q9          q8          q6
Model:    2n2222      d45h11      bc546b      bc546b      bc546b
Ib:       5.51e-06   -2.11e-03    3.93e-06    3.93e-06    6.92e-06
Ic:       1.10e-03   -2.09e-01    1.11e-03    1.11e-03    2.11e-03
Vbe:      6.58e-01   -4.73e-01    6.42e-01    6.42e-01    6.57e-01
Vbc:     -4.12e-02    5.83e+00    8.17e-02    0.00e+00   -5.18e+00
Vce:      6.99e-01   -6.31e+00    5.60e-01    6.42e-01    5.83e+00
BetaDC:   1.99e+02    9.91e+01    2.82e+02    2.82e+02    3.04e+02
Gm:       4.23e-02    9.33e+00    4.21e-02    4.21e-02    7.95e-02
Rpi:      4.70e+03    1.05e+01    6.65e+03    6.65e+03    3.78e+03
Rx:       1.00e+01    2.26e+00    1.00e+00    1.00e+00    1.00e+00
Ro:       9.11e+04    7.82e+01    5.56e+04    5.56e+04    3.17e+04
Cbe:      5.62e-11    3.80e-08    6.55e-11    6.55e-11    8.87e-11
Cbc:      7.86e-12    2.09e-10    2.47e-12    2.31e-12    1.06e-12
Cjs:      0.00e+00    0.00e+00    0.00e+00    0.00e+00    0.00e+00
BetaAC:   1.99e+02    9.76e+01    2.80e+02    2.80e+02    3.00e+02
Cbx:      0.00e+00    5.13e-11    1.52e-12    1.42e-12    6.52e-13
Ft:       1.05e+08    3.88e+07    9.64e+07    9.68e+07    1.40e+08

Name:       q2          q1          q4          q3
Model:    bc546b      bc546b     bc327-25    bc327-25
Ib:      -1.31e-12    3.67e-06   -2.93e-06   -3.34e-06
Ic:       7.56e-13    1.10e-03   -1.11e-03   -1.10e-03
Vbe:     -5.51e-01    6.40e-01   -5.88e-01   -5.92e-01
Vbc:     -6.90e-01   -4.04e+00    4.54e+00    0.00e+00
Vce:      1.39e-01    4.68e+00   -5.13e+00   -5.92e-01
BetaDC:  -5.77e-01    3.01e+02    3.77e+02    3.28e+02
Gm:       6.23e-22    4.19e-02    4.29e-02    4.26e-02
Rpi:      1.00e+12    7.13e+03    9.01e+03    7.89e+03
Rx:       1.00e+00    1.00e+00    6.75e-01    6.66e-01
Ro:       3.35e+23    5.95e+04    3.10e+04    2.71e+04
Cbe:      1.11e-11    6.46e-11    1.14e-10    1.14e-10
Cbc:      1.72e-12    1.13e-12    4.37e-12    1.22e-11
Cjs:      0.00e+00    0.00e+00    0.00e+00    0.00e+00
BetaAC:   6.23e-10    2.99e+02    3.87e+02    3.36e+02
Cbx:      1.06e-12    6.97e-13    5.16e-12    1.44e-11
Ft:       1.15e-02    1.01e+08    5.53e+07    4.82e+07

                        --- VDMOSFET Transistors ---
Name:          m1
Model:       ao6408
Id:          1.46e-09
Vgs:         0.00e+00
Vds:         4.12e-03
Vth:         1.00e+00
Gm:          1.85e-08
Gds:         0.00e+00
Cgs:         1.00e-09
Cgd:         5.24e-10
Cbody:       3.59e-10



vo1rc: v(vo)=3.30602 at 100
vo2rc: v(vo)=3.30405 at 10
io1rc: i(rl)=0.0330602 at 100
io2rc: i(rl)=0.330405 at 10
regcar: (-(vo2rc-vo1rc)/(io2rc-io1rc))=0.0066303


Date: Thu Apr 27 21:20:11 2023
Total elapsed time: 20.128 seconds.

tnom = 27
temp = 27
method = trap
totiter = 496
traniter = 0
tranpoints = 0
accept = 0
rejected = 0
matrix size = 71
fillins = 81
solver = Normal
Matrix Compiler1: 8.44 KB object code size
Matrix Compiler2: 7.20 KB object code size  0.8/1.2/[0.6]

