Circuit: * C:\Users\joaqu\Desktop\Circuit-Design\LDOA_Regulator\Regulador_LDOA_v5.asc

WARNING: Node NC_01 is floating.

WARNING: Less than two connections to node NC_01.  This node is used by L4.
Ignoring empty pin current: Ix(u4:1)
Ignoring empty pin current: Ix(u4:2)
Early termination of direct N-R iteration.
Direct Newton iteration failed to find .op point.  (Use ".option noopiter" to skip.)
Starting Gmin stepping
Gmin = 10
Gmin = 1.07374
Gmin = 0.115292
Gmin = 0.0123794
Gmin = 0.00132923
Gmin = 0.000142725
Gmin = 1.5325e-005
vernier = 0.5
vernier = 0.25
vernier = 0.125
Gmin = 6.95042e-006
vernier = 0.0625
vernier = 0.03125
vernier = 0.0416667
Gmin = 6.48054e-006
vernier = 0.0555555
vernier = 0.074074
Gmin = 5.67804e-006
vernier = 0.0987653
Gmin = 4.58552e-006
vernier = 0.131687
vernier = 0.175583
Gmin = 3.23906e-006
vernier = 0.23411
vernier = 0.312147
Gmin = 1.87759e-006
vernier = 0.416196
Gmin = 7.86126e-007
vernier = 0.554928
vernier = 0.739903
Gmin = 1.96267e-007
vernier = 0.986537
vernier = 1
Gmin = 2.51405e-008
Gmin = 2.69944e-009
Gmin = 2.8985e-010
Gmin = 3.11224e-011
Gmin = 3.34174e-012
Gmin = 3.58817e-013
Gmin = 0
Gmin stepping succeeded in finding the operating point.

Semiconductor Device Operating Points:
                        --- Diodes ---
Name:    d:u3:3      d:u3:4      d:u3:6      d:u3:5      d:u3:2
Model:    u3:dx       u3:dx       u3:dx       u3:dx       u3:dx
Id:     -2.68e-13   -2.74e-13    4.09e-05    3.33e-05   -2.66e-14
Vd:     -2.67e-01   -2.73e-01    6.32e-01    6.27e-01   -2.59e-02
Req:     1.00e+12    1.00e+12    6.33e+02    7.76e+02    9.86e+11
CAP:     0.00e+00    0.00e+00    0.00e+00    0.00e+00    0.00e+00

Name:    d:u3:1      d:u2:3      d:u2:4      d:u2:6      d:u2:5
Model:    u3:dx       u2:dx       u2:dx       u2:dx       u2:dx
Id:     -4.06e-12   -2.70e-13   -2.72e-13    3.79e-05    3.60e-05
Vd:     -4.06e+00   -2.69e-01   -2.71e-01    6.30e-01    6.29e-01
Req:     1.00e+12    1.00e+12    1.00e+12    6.82e+02    7.19e+02
CAP:     0.00e+00    0.00e+00    0.00e+00    0.00e+00    0.00e+00

Name:    d:u2:2      d:u2:1      d:u1:3      d:u1:4      d:u1:6
Model:    u2:dx       u2:dx       u1:dx       u1:dx       u1:dx
Id:      3.78e-09   -4.48e-12   -2.72e-13   -2.70e-13    3.59e-05
Vd:      3.92e-01   -4.48e+00   -2.71e-01   -2.69e-01    6.29e-01
Req:     6.83e+06    1.00e+12    1.00e+12    1.00e+12    7.20e+02
CAP:     0.00e+00    0.00e+00    0.00e+00    0.00e+00    0.00e+00

Name:    d:u1:5      d:u1:2      d:u1:1      d:u6:3      d:u6:4
Model:    u1:dx       u1:dx       u1:dx       u6:dx       u6:dx
Id:      3.80e-05    1.90e-08   -4.52e-12   -2.64e-13   -2.78e-13
Vd:      6.30e-01    4.33e-01   -4.52e+00   -2.63e-01   -2.77e-01
Req:     6.81e+02    1.36e+06    1.00e+12    1.00e+12    1.00e+12
CAP:     0.00e+00    0.00e+00    0.00e+00    0.00e+00    0.00e+00

Name:    d:u6:6      d:u6:5      d:u6:2      d:u6:1
Model:    u6:dx       u6:dx       u6:dx       u6:dx
Id:      4.84e-05    2.81e-05    1.19e-12   -4.27e-12
Vd:      6.36e-01    6.22e-01    1.79e-01   -4.26e+00
Req:     5.34e+02    9.20e+02    2.48e+10    1.00e+12
CAP:     0.00e+00    0.00e+00    0.00e+00    0.00e+00

                        --- Bipolar Transistors ---
Name:     q:u3:2      q:u3:1      q:u2:2      q:u2:1      q:u1:2
Model:     u3:qx       u3:qx       u2:qx       u2:qx       u1:qx
Ib:      -4.50e-08   -4.49e-08   -4.50e-08   -4.49e-08   -4.50e-08
Ic:      -5.00e-05   -4.99e-05   -5.00e-05   -4.99e-05   -5.00e-05
Vbe:     -6.97e-01   -6.97e-01   -6.97e-01   -6.97e-01   -6.97e-01
Vbc:      4.25e-01    4.25e-01    2.17e-01    2.17e-01    1.76e-01
Vce:     -1.12e+00   -1.12e+00   -9.13e-01   -9.13e-01   -8.73e-01
BetaDC:   1.11e+03    1.11e+03    1.11e+03    1.11e+03    1.11e+03
Gm:       1.93e-03    1.93e-03    1.93e-03    1.93e-03    1.93e-03
Rpi:      5.75e+05    5.76e+05    5.75e+05    5.76e+05    5.75e+05
Rx:       0.00e+00    0.00e+00    0.00e+00    0.00e+00    0.00e+00
Ro:       3.53e+21    3.54e+21    1.12e+18    1.13e+18    2.37e+17
Cbe:      0.00e+00    0.00e+00    0.00e+00    0.00e+00    0.00e+00
Cbc:      0.00e+00    0.00e+00    0.00e+00    0.00e+00    0.00e+00
Cjs:      0.00e+00    0.00e+00    0.00e+00    0.00e+00    0.00e+00
BetaAC:   1.11e+03    1.11e+03    1.11e+03    1.11e+03    1.11e+03
Cbx:      0.00e+00    0.00e+00    0.00e+00    0.00e+00    0.00e+00
Ft:       0.00e+00    0.00e+00    0.00e+00    0.00e+00    0.00e+00

Name:     q:u1:1      q:u6:2      q:u6:1        q7        q2n6487
Model:     u1:qx       u6:qx       u6:qx      2n2222      q2n6487
Ib:      -4.49e-08   -4.50e-08   -4.49e-08    5.46e-06    1.85e-05
Ic:      -4.99e-05   -5.00e-05   -4.99e-05    1.09e-03    4.53e-03
Vbe:     -6.97e-01   -6.97e-01   -6.97e-01    6.58e-01    3.92e-01
Vbc:      1.77e-01    1.99e-01    1.99e-01    1.75e-01   -5.10e+00
Vce:     -8.73e-01   -8.95e-01   -8.95e-01    4.83e-01    5.49e+00
BetaDC:   1.11e+03    1.11e+03    1.11e+03    1.99e+02    2.45e+02
Gm:       1.93e-03    1.93e-03    1.93e-03    4.19e-02    2.02e-01
Rpi:      5.76e+05    5.75e+05    5.76e+05    4.73e+03    1.19e+03
Rx:       0.00e+00    0.00e+00    0.00e+00    1.00e+01    4.68e+00
Ro:       2.38e+17    5.61e+17    5.62e+17    9.18e+04    3.91e+03
Cbe:      0.00e+00    0.00e+00    0.00e+00    5.60e-11    9.50e-10
Cbc:      0.00e+00    0.00e+00    0.00e+00    8.73e-12    1.18e-10
Cjs:      0.00e+00    0.00e+00    0.00e+00    0.00e+00    0.00e+00
BetaAC:   1.11e+03    1.11e+03    1.11e+03    1.98e+02    2.40e+02
Cbx:      0.00e+00    0.00e+00    0.00e+00    0.00e+00    2.94e-11
Ft:       0.00e+00    0.00e+00    0.00e+00    1.03e+08    2.93e+07

Name:    q§tip42c       q9          q8          q2          q1
Model:    tip42c      bc546b      bc546b      bc546b      bc546b
Ib:      -4.53e-03    3.93e-06    3.93e-06    1.61e-13    3.67e-06
Ic:      -4.49e-01    1.11e-03    1.11e-03   -3.04e-13    1.10e-03
Vbe:     -7.70e-01    6.42e-01    6.42e-01   -3.76e-02    6.40e-01
Vbc:      5.49e+00    8.17e-02    0.00e+00    3.94e-02   -4.04e+00
Vce:     -6.26e+00    5.60e-01    6.42e-01   -7.70e-02    4.68e+00
BetaDC:   9.90e+01    2.82e+02    2.82e+02   -1.89e+00    3.01e+02
Gm:       1.38e+01    4.21e-02    4.21e-02   -3.97e-12    4.19e-02
Rpi:      5.90e+00    6.65e+03    6.65e+03    9.66e+11    7.13e+03
Rx:       1.00e-01    1.00e+00    1.00e+00    1.00e+00    1.00e+00
Ro:       2.35e+02    5.56e+04    5.56e+04    2.38e+11    5.95e+04
Cbe:      3.22e-07    6.55e-11    6.55e-11    1.34e-11    6.46e-11
Cbc:      2.21e-10    2.47e-12    2.31e-12    2.38e-12    1.13e-12
Cjs:      0.00e+00    0.00e+00    0.00e+00    0.00e+00    0.00e+00
BetaAC:   8.15e+01    2.80e+02    2.80e+02   -3.84e+00    2.99e+02
Cbx:      0.00e+00    1.52e-12    1.42e-12    1.46e-12    6.97e-13
Ft:       6.83e+06    9.64e+07    9.68e+07    3.55e-02    1.01e+08

Name:       q4          q3
Model:   bc327-25    bc327-25
Ib:      -2.91e-06   -3.34e-06
Ic:      -1.11e-03   -1.10e-03
Vbe:     -5.88e-01   -5.92e-01
Vbc:      4.76e+00    0.00e+00
Vce:     -5.35e+00   -5.92e-01
BetaDC:   3.79e+02    3.28e+02
Gm:       4.29e-02    4.26e-02
Rpi:      9.07e+03    7.89e+03
Rx:       6.75e-01    6.66e-01
Ro:       3.12e+04    2.71e+04
Cbe:      1.14e-10    1.14e-10
Cbc:      4.29e-12    1.22e-11
Cjs:      0.00e+00    0.00e+00
BetaAC:   3.89e+02    3.36e+02
Cbx:      5.05e-12    1.44e-11
Ft:       5.54e+07    4.82e+07

                        --- VDMOSFET Transistors ---
Name:          m1
Model:       2n7002
Id:          5.20e-04
Vgs:         5.00e+00
Vds:         1.11e-03
Vth:         1.60e+00
Gm:          1.53e-04
Gds:         7.22e-01
Cgs:         5.00e-11
Cgd:         8.00e-11
Cbody:       5.00e-11


