Circuit: * D:\Uli\FIUBA\Materias\Diseño de Circuitos\Practica\Circuit-Design\LDOA_Regulator\Regulador_LDOA_v2_Cuasi_Darlington_selector.asc

Early termination of direct N-R iteration.
Direct Newton iteration failed to find .op point.  (Use ".option noopiter" to skip.)
Starting Gmin stepping
Gmin = 10
vernier = 0.5
vernier = 0.25
vernier = 0.125
Gmin = 5.5165
vernier = 0.0625
vernier = 0.03125
vernier = 0.015625
vernier = 0.0078125
Gmin = 5.48432
vernier = 0.00390625
vernier = 0.00195313
vernier = 0.000976563
vernier = 0.000488281
Gmin = 0
Gmin stepping failed

Starting source stepping with srcstepmethod=0
Source Step = 3.0303%
Source Step = 33.3333%
Source Step = 63.6364%
Source Step = 93.9394%
Source stepping succeeded in finding the operating point.

Semiconductor Device Operating Points:
                        --- Diodes ---
Name:    d:u5:p      d:u5:ln     d:u5:lp     d:u5:e      d:u5:c
Model:    u5:dx       u5:dx       u5:dx       u5:dx       u5:dx
Id:     -3.00e-11   -2.50e-11   -2.50e-11   -1.30e-11   -1.26e-11
Vd:     -3.00e+01   -2.50e+01   -2.50e+01   -1.30e+01   -1.26e+01
Req:     1.00e+12    1.00e+12    1.00e+12    1.00e+12    1.00e+12
CAP:     0.00e+00    0.00e+00    0.00e+00    0.00e+00    0.00e+00

Name:    d:u4:p      d:u4:ln     d:u4:lp     d:u4:e      d:u4:c
Model:    u4:dx       u4:dx       u4:dx       u4:dx       u4:dx
Id:     -3.00e-11   -2.50e-11   -2.50e-11   -1.28e-11   -1.28e-11
Vd:     -3.00e+01   -2.50e+01   -2.50e+01   -1.28e+01   -1.28e+01
Req:     1.00e+12    1.00e+12    1.00e+12    1.00e+12    1.00e+12
CAP:     0.00e+00    0.00e+00    0.00e+00    0.00e+00    0.00e+00

Name:    d:u3:p      d:u3:ln     d:u3:lp     d:u3:e      d:u3:c
Model:    u3:dx       u3:dx       u3:dx       u3:dx       u3:dx
Id:     -3.00e-11   -2.50e-11   -2.50e-11   -1.30e-11   -1.26e-11
Vd:     -3.00e+01   -2.50e+01   -2.50e+01   -1.30e+01   -1.26e+01
Req:     1.00e+12    1.00e+12    1.00e+12    1.00e+12    1.00e+12
CAP:     0.00e+00    0.00e+00    0.00e+00    0.00e+00    0.00e+00

Name:    d:u2:p      d:u2:ln     d:u2:lp     d:u2:e      d:u2:c
Model:    u2:dx       u2:dx       u2:dx       u2:dx       u2:dx
Id:     -3.00e-11   -2.50e-11   -2.50e-11   -1.35e-11   -1.21e-11
Vd:     -3.00e+01   -2.50e+01   -2.50e+01   -1.35e+01   -1.21e+01
Req:     1.00e+12    1.00e+12    1.00e+12    1.00e+12    1.00e+12
CAP:     0.00e+00    0.00e+00    0.00e+00    0.00e+00    0.00e+00

Name:    d:u1:p      d:u1:ln     d:u1:lp     d:u1:e      d:u1:c
Model:    u1:dx       u1:dx       u1:dx       u1:dx       u1:dx
Id:     -3.00e-11   -2.50e-11   -2.50e-11   -1.30e-11   -1.26e-11
Vd:     -3.00e+01   -2.50e+01   -2.50e+01   -1.30e+01   -1.26e+01
Req:     1.00e+12    1.00e+12    1.00e+12    1.00e+12    1.00e+12
CAP:     0.00e+00    0.00e+00    0.00e+00    0.00e+00    0.00e+00

                        --- Bipolar Transistors ---
Name:       q7          q6          q2          q1          q5
Model:    2n2222      2n2222      2n2222      2n2222      2n2907
Ib:       5.34e-06    8.06e-06   -1.31e-12    5.22e-06   -1.68e-03
Ic:       1.07e-03    1.68e-03    8.55e-13    1.08e-03   -2.45e-01
Vbe:      6.57e-01    6.68e-01   -4.56e-01    6.57e-01   -8.77e-01
Vbc:     -2.82e-01   -4.53e+00   -8.52e-01   -3.99e+00    5.20e+00
Vce:      9.39e-01    5.20e+00    3.96e-01    4.64e+00   -6.08e+00
BetaDC:   2.00e+02    2.08e+02   -6.52e-01    2.07e+02    1.46e+02
Gm:       4.11e-02    6.45e-02    8.70e-21    4.17e-02    6.58e+00
Rpi:      4.84e+03    3.21e+03    1.00e+12    4.96e+03    1.54e+01
Rx:       1.00e+01    1.00e+01    1.00e+01    1.00e+01    1.00e+01
Ro:       9.40e+04    6.23e+04    4.48e+23    9.61e+04    5.11e+02
Cbe:      5.57e-11    6.53e-11    2.14e-11    5.59e-11    3.04e-09
Cbc:      7.20e-12    4.20e-12    6.23e-12    4.35e-12    4.05e-12
Cjs:      0.00e+00    0.00e+00    0.00e+00    0.00e+00    0.00e+00
BetaAC:   1.99e+02    2.07e+02    8.70e-09    2.06e+02    1.02e+02
Cbx:      0.00e+00    0.00e+00    0.00e+00    0.00e+00    0.00e+00
Ft:       1.04e+08    1.48e+08    5.77e-03    1.10e+08    3.45e+08

Name:       q4          q3
Model:    2n2907      2n2907
Ib:      -4.17e-06   -4.31e-06
Ic:      -1.08e-03   -1.07e-03
Vbe:     -6.56e-01   -6.57e-01
Vbc:      4.25e+00    0.00e+00
Vce:     -4.90e+00   -6.57e-01
BetaDC:   2.58e+02    2.49e+02
Gm:       4.14e-02    4.13e-02
Rpi:      6.20e+03    6.00e+03
Rx:       1.00e+01    1.00e+01
Ro:       1.16e+05    1.12e+05
Cbe:      6.36e-11    6.36e-11
Cbc:      4.28e-12    8.00e-12
Cjs:      0.00e+00    0.00e+00
BetaAC:   2.57e+02    2.48e+02
Cbx:      0.00e+00    0.00e+00
Ft:       9.71e+07    9.19e+07

                        --- JFET Transistors ---
Name:    j:u5:2      j:u5:1      j:u4:2      j:u4:1      j:u3:2
Model:    u5:jx       u5:jx       u4:jx       u4:jx       u3:jx
Id:     -9.76e-05   -9.76e-05   -9.77e-05   -9.77e-05   -9.76e-05
Vgs:     3.99e-01    3.99e-01    3.99e-01    3.99e-01    3.99e-01
Vds:    -1.44e+01   -1.44e+01   -1.43e+01   -1.43e+01   -1.45e+01
Gm:      3.25e-04    3.25e-04    3.25e-04    3.25e-04    3.25e-04
Gds:     0.00e+00    0.00e+00    0.00e+00    0.00e+00    0.00e+00
Cgs:     0.00e+00    0.00e+00    0.00e+00    0.00e+00    0.00e+00
Cgd:     0.00e+00    0.00e+00    0.00e+00    0.00e+00    0.00e+00

Name:    j:u3:1      j:u2:2      j:u2:1      j:u1:2      j:u1:1
Model:    u3:jx       u2:jx       u2:jx       u1:jx       u1:jx
Id:     -9.76e-05   -9.76e-05   -9.76e-05   -9.76e-05   -9.76e-05
Vgs:     3.99e-01    3.99e-01    3.99e-01    3.99e-01    3.99e-01
Vds:    -1.45e+01   -1.45e+01   -1.45e+01   -1.45e+01   -1.45e+01
Gm:      3.25e-04    3.25e-04    3.25e-04    3.25e-04    3.25e-04
Gds:     0.00e+00    0.00e+00    0.00e+00    0.00e+00    0.00e+00
Cgs:     0.00e+00    0.00e+00    0.00e+00    0.00e+00    0.00e+00
Cgd:     0.00e+00    0.00e+00    0.00e+00    0.00e+00    0.00e+00

                        --- VDMOSFET Transistors ---
Name:          m1
Model:       ao6408
Id:          1.47e-09
Vgs:         0.00e+00
Vds:         3.84e-02
Vth:         1.00e+00
Gm:          1.85e-08
Gds:         0.00e+00
Cgs:         1.00e-09
Cgd:         5.18e-10
Cbody:       3.53e-10


