Circuit: * C:\Users\joaqu\Desktop\Circuit-Design\LDOA_Regulator\Regulador_LDOA_v5.asc

WARNING: Node NC_01 is floating.

WARNING: Less than two connections to node NC_01.  This node is used by L4.
Direct Newton iteration for .op point succeeded.
Semiconductor Device Operating Points:
                        --- Bipolar Transistors ---
Name:       q7          q5          q9          q8          q6
Model:    2n2222      d45h11      bc546b      bc546b      bc546b
Ib:      -8.82e-11   -4.94e-03    3.93e-06    3.93e-06    1.79e-05
Ic:       4.70e-11   -3.31e-01    1.11e-03    1.11e-03    4.94e-03
Vbe:     -4.12e+01   -4.98e-01    6.42e-01    6.42e-01    6.83e-01
Vbc:     -4.70e+01    7.91e-01    6.36e-02    0.00e+00   -1.08e-01
Vce:      5.74e+00   -1.29e+00    5.78e-01    6.42e-01    7.91e-01
BetaDC:  -5.33e-01    6.72e+01    2.82e+02    2.82e+02    2.75e+02
Gm:       0.00e+00    1.46e+01    4.21e-02    4.21e-02    1.82e-01
Rpi:      1.00e+12    4.46e+00    6.65e+03    6.65e+03    1.46e+03
Rx:       1.00e+01    2.16e+00    1.00e+00    1.00e+00    1.00e+00
Ro:       0.00e+00    3.39e+01    5.56e+04    5.56e+04    1.25e+04
Cbe:      6.62e-12    6.55e-08    6.55e-11    6.55e-11    1.47e-10
Cbc:      2.03e-12    3.13e-10    2.43e-12    2.31e-12    2.16e-12
Cjs:      0.00e+00    0.00e+00    0.00e+00    0.00e+00    0.00e+00
BetaAC:   0.00e+00    6.50e+01    2.80e+02    2.80e+02    2.66e+02
Cbx:      0.00e+00    7.69e-11    1.50e-12    1.42e-12    1.33e-12
Ft:       1.84e-02    3.52e+07    9.65e+07    9.68e+07    1.93e+08

Name:       q2          q1          q4          q3
Model:    bc546b      bc546b     bc327-25    bc327-25
Ib:       1.78e-06    1.86e-06   -1.75e-06   -1.74e-06
Ic:       5.41e-04    5.63e-04   -5.59e-04   -5.59e-04
Vbe:      6.21e-01    6.22e-01   -5.74e-01   -5.74e-01
Vbc:     -4.54e+00   -4.31e+00   -2.32e-01    0.00e+00
Vce:      5.17e+00    4.93e+00   -3.43e-01   -5.74e-01
BetaDC:   3.04e+02    3.03e+02    3.20e+02    3.22e+02
Gm:       2.06e-02    2.15e-02    2.17e-02    2.17e-02
Rpi:      1.47e+04    1.41e+04    1.52e+04    1.53e+04
Rx:       1.00e+00    1.00e+00    7.10e-01    7.11e-01
Ro:       1.22e+05    1.17e+05    5.27e+04    5.32e+04
Cbe:      4.66e-11    4.74e-11    9.67e-11    9.67e-11
Cbc:      1.10e-12    1.11e-12    1.53e-11    1.22e-11
Cjs:      0.00e+00    0.00e+00    0.00e+00    0.00e+00
BetaAC:   3.03e+02    3.02e+02    3.30e+02    3.32e+02
Cbx:      6.75e-13    6.85e-13    1.80e-11    1.44e-11
Ft:       6.80e+07    6.95e+07    2.66e+07    2.81e+07

                        --- VDMOSFET Transistors ---
Name:          m1
Model:       ao6408
Id:          1.20e-03
Vgs:         5.00e+00
Vds:         1.34e-05
Vth:         1.00e+00
Gm:          3.00e-04
Gds:         3.60e+02
Cgs:         1.00e-09
Cgd:         7.00e-10
Cbody:       3.60e-10


Ignoring empty pin current: Ix(u2:1)
Ignoring empty pin current: Ix(u2:2)
Ignoring empty pin current: Ix(u3:1)
Ignoring empty pin current: Ix(u3:2)
Ignoring empty pin current: Ix(u4:1)
Ignoring empty pin current: Ix(u4:2)
Ignoring empty pin current: Ix(u5:1)
Ignoring empty pin current: Ix(u5:2)
Ignoring empty pin current: Ix(u1:1)
Ignoring empty pin current: Ix(u1:2)
Ignoring empty pin current: Ix(u2:1)
Ignoring empty pin current: Ix(u2:2)
Ignoring empty pin current: Ix(u3:1)
Ignoring empty pin current: Ix(u3:2)
Ignoring empty pin current: Ix(u4:1)
Ignoring empty pin current: Ix(u4:2)
Ignoring empty pin current: Ix(u5:1)
Ignoring empty pin current: Ix(u5:2)
Ignoring empty pin current: Ix(u1:1)
Ignoring empty pin current: Ix(u1:2)



Date: Fri Apr 28 17:29:02 2023
Total elapsed time: 0.140 seconds.

tnom = 27
temp = 27
method = trap
totiter = 38
traniter = 0
tranpoints = 0
accept = 0
rejected = 0
matrix size = 76
fillins = 75
solver = Normal
Matrix Compiler1:     445 opcodes
Matrix Compiler2:     572 opcodes
