Circuit: * C:\Users\joaqu\Desktop\Circuit-Design\LDOA_Regulator\Regulador_LDOA_v6.asc

WARNING: Node N022 is floating.

WARNING: Less than two connections to node N022.  This node is used by L4.
Early termination of direct N-R iteration.
Direct Newton iteration failed to find .op point.  (Use ".option noopiter" to skip.)
Starting Gmin stepping
Gmin = 10
Gmin = 1.07374
Gmin = 0.115292
Gmin = 0.0123794
Gmin = 0.00132923
Gmin = 0.000142725
Gmin = 1.5325e-005
Gmin = 1.6455e-006
Gmin = 1.76685e-007
Gmin = 1.89714e-008
Gmin = 2.03704e-009
Gmin = 2.18725e-010
Gmin = 2.34854e-011
Gmin = 2.52173e-012
Gmin = 2.70769e-013
Gmin = 0
Gmin stepping succeeded in finding the operating point.

Semiconductor Device Operating Points:
                        --- Diodes ---
Name:    d:u5:3      d:u5:4      d:u5:6      d:u5:5      d:u5:2
Model:    u5:dx       u5:dx       u5:dx       u5:dx       u5:dx
Id:     -2.83e-13   -2.59e-13    2.30e-05    5.89e-05    2.23e-13
Vd:     -2.82e-01   -2.58e-01    6.17e-01    6.41e-01    1.20e-01
Req:     1.00e+12    1.00e+12    1.12e+03    4.39e+02    1.99e+11
CAP:     0.00e+00    0.00e+00    0.00e+00    0.00e+00    0.00e+00

Name:    d:u5:1      d:u3:3      d:u3:4      d:u3:6      d:u3:5
Model:    u5:dx       u3:dx       u3:dx       u3:dx       u3:dx
Id:     -4.21e-12   -2.74e-13   -2.68e-13    3.33e-05    4.10e-05
Vd:     -4.21e+00   -2.73e-01   -2.67e-01    6.27e-01    6.32e-01
Req:     1.00e+12    1.00e+12    1.00e+12    7.77e+02    6.31e+02
CAP:     0.00e+00    0.00e+00    0.00e+00    0.00e+00    0.00e+00

Name:    d:u3:2      d:u3:1      d:u2:3      d:u2:4      d:u2:6
Model:    u3:dx       u3:dx       u2:dx       u2:dx       u2:dx
Id:      9.86e-05   -4.74e-12   -2.65e-13   -2.77e-13    4.66e-05
Vd:      6.55e-01   -4.74e+00   -2.64e-01   -2.76e-01    6.35e-01
Req:     2.62e+02    1.00e+12    1.00e+12    1.00e+12    5.55e+02
CAP:     0.00e+00    0.00e+00    0.00e+00    0.00e+00    0.00e+00

Name:    d:u2:5      d:u2:2      d:u2:1      d:u1:3      d:u1:4
Model:    u2:dx       u2:dx       u2:dx       u1:dx       u1:dx
Id:      2.92e-05    9.49e-14   -4.16e-12   -2.77e-13   -2.65e-13
Vd:      6.23e-01    7.66e-02   -4.16e+00   -2.76e-01   -2.64e-01
Req:     8.86e+02    5.72e+11    1.00e+12    1.00e+12    1.00e+12
CAP:     0.00e+00    0.00e+00    0.00e+00    0.00e+00    0.00e+00

Name:    d:u1:6      d:u1:5      d:u1:2      d:u1:1      d:u6:3
Model:    u1:dx       u1:dx       u1:dx       u1:dx       u6:dx
Id:      2.92e-05    4.67e-05    2.34e-08   -4.52e-12   -2.55e-13
Vd:      6.23e-01    6.35e-01    4.39e-01   -4.52e+00   -2.54e-01
Req:     8.87e+02    5.54e+02    1.10e+06    1.00e+12    1.00e+12
CAP:     0.00e+00    0.00e+00    0.00e+00    0.00e+00    0.00e+00

Name:    d:u6:4      d:u6:6      d:u6:5      d:u6:2      d:u6:1
Model:    u6:dx       u6:dx       u6:dx       u6:dx       u6:dx
Id:     -2.87e-13    6.62e-05    2.04e-05   -1.40e-13   -3.95e-12
Vd:     -2.86e-01    6.44e-01    6.14e-01   -1.39e-01   -3.95e+00
Req:     1.00e+12    3.91e+02    1.27e+03    1.00e+12    1.00e+12
CAP:     0.00e+00    0.00e+00    0.00e+00    0.00e+00    0.00e+00

                        --- Bipolar Transistors ---
Name:     q:u5:2      q:u5:1      q:u3:2      q:u3:1      q:u2:2
Model:     u5:qx       u5:qx       u3:qx       u3:qx       u2:qx
Ib:      -4.50e-08   -4.49e-08   -8.99e-08   -1.41e-11   -4.50e-08
Ic:      -5.00e-05   -4.99e-05   -9.99e-05   -1.59e-08   -5.00e-05
Vbe:     -6.97e-01   -6.97e-01   -7.15e-01   -4.88e-01   -6.97e-01
Vbc:      4.58e+00    4.58e+00    4.73e-01    7.50e-01    5.26e-01
Vce:     -5.28e+00   -5.28e+00   -1.19e+00   -1.24e+00   -1.22e+00
BetaDC:   1.11e+03    1.11e+03    1.11e+03    1.13e+03    1.11e+03
Gm:       1.93e-03    1.93e-03    3.86e-03    6.15e-07    1.93e-03
Rpi:      5.75e+05    5.76e+05    2.88e+05    1.80e+09    5.75e+05
Rx:       0.00e+00    0.00e+00    0.00e+00    0.00e+00    0.00e+00
Ro:       2.19e+91    2.20e+91    2.23e+22    1.03e+27    1.78e+23
Cbe:      0.00e+00    0.00e+00    0.00e+00    0.00e+00    0.00e+00
Cbc:      0.00e+00    0.00e+00    0.00e+00    0.00e+00    0.00e+00
Cjs:      0.00e+00    0.00e+00    0.00e+00    0.00e+00    0.00e+00
BetaAC:   1.11e+03    1.11e+03    1.11e+03    1.11e+03    1.11e+03
Cbx:      0.00e+00    0.00e+00    0.00e+00    0.00e+00    0.00e+00
Ft:       0.00e+00    0.00e+00    0.00e+00    0.00e+00    0.00e+00

Name:     q:u2:1      q:u1:2      q:u1:1      q:u6:2      q:u6:1
Model:     u2:qx       u1:qx       u1:qx       u6:qx       u6:qx
Ib:      -4.49e-08   -4.50e-08   -4.49e-08   -4.50e-08   -4.49e-08
Ic:      -4.99e-05   -5.00e-05   -4.99e-05   -5.00e-05   -4.99e-05
Vbe:     -6.97e-01   -6.97e-01   -6.97e-01   -6.97e-01   -6.97e-01
Vbc:      5.26e-01    1.76e-01    1.77e-01    3.54e-01    3.54e-01
Vce:     -1.22e+00   -8.73e-01   -8.73e-01   -1.05e+00   -1.05e+00
BetaDC:   1.11e+03    1.11e+03    1.11e+03    1.11e+03    1.11e+03
Gm:       1.93e-03    1.93e-03    1.93e-03    1.93e-03    1.93e-03
Rpi:      5.76e+05    5.75e+05    5.76e+05    5.75e+05    5.76e+05
Rx:       0.00e+00    0.00e+00    0.00e+00    0.00e+00    0.00e+00
Ro:       1.78e+23    2.37e+17    2.38e+17    2.23e+20    2.24e+20
Cbe:      0.00e+00    0.00e+00    0.00e+00    0.00e+00    0.00e+00
Cbc:      0.00e+00    0.00e+00    0.00e+00    0.00e+00    0.00e+00
Cjs:      0.00e+00    0.00e+00    0.00e+00    0.00e+00    0.00e+00
BetaAC:   1.11e+03    1.11e+03    1.11e+03    1.11e+03    1.11e+03
Cbx:      0.00e+00    0.00e+00    0.00e+00    0.00e+00    0.00e+00
Ft:       0.00e+00    0.00e+00    0.00e+00    0.00e+00    0.00e+00

Name:       q7        q2n6487    q§tip42c       q9          q8
Model:    2n2222      q2n6487     tip42c      bc546b      bc546b
Ib:      -5.51e-12    3.15e-05   -5.46e-03    3.93e-06    3.93e-06
Ic:       5.49e-12    5.46e-03   -4.97e-01    1.11e-03    1.11e-03
Vbe:     -1.70e-02    4.04e-01   -7.75e-01    6.42e-01    6.42e-01
Vbc:     -5.49e+00   -1.05e-01    5.09e-01    6.39e-02    0.00e+00
Vce:      5.47e+00    5.09e-01   -1.28e+00    5.78e-01    6.42e-01
BetaDC:  -9.98e-01    1.74e+02    9.11e+01    2.82e+02    2.82e+02
Gm:       2.11e-13    2.41e-01    1.49e+01    4.21e-02    4.21e-02
Rpi:      9.99e+11    6.99e+02    4.89e+00    6.65e+03    6.65e+03
Rx:       1.00e+01    4.67e+00    1.00e-01    1.00e+00    1.00e+00
Ro:       1.93e+16    2.30e+03    2.02e+02    5.56e+04    5.56e+04
Cbe:      2.48e-11    9.79e-10    3.47e-07    6.55e-11    6.55e-11
Cbc:      3.98e-12    2.17e-10    6.35e-10    2.43e-12    2.31e-12
Cjs:      0.00e+00    0.00e+00    0.00e+00    0.00e+00    0.00e+00
BetaAC:   2.11e-01    1.68e+02    7.28e+01    2.80e+02    2.80e+02
Cbx:      0.00e+00    5.42e-11    0.00e+00    1.50e-12    1.42e-12
Ft:       5.41e-03    3.07e+07    6.81e+06    9.65e+07    9.68e+07

Name:       q2          q1          q4          q3
Model:    bc546b      bc546b     bc327-25    bc327-25
Ib:       1.77e-06    1.88e-06   -1.75e-06   -1.76e-06
Ic:       5.35e-04    5.69e-04   -5.66e-04   -5.66e-04
Vbe:      6.21e-01    6.22e-01   -5.74e-01   -5.74e-01
Vbc:     -4.27e+00   -4.31e+00    3.93e-02    0.00e+00
Vce:      4.89e+00    4.93e+00   -6.14e-01   -5.74e-01
BetaDC:   3.02e+02    3.03e+02    3.23e+02    3.22e+02
Gm:       2.04e-02    2.17e-02    2.20e-02    2.20e-02
Rpi:      1.48e+04    1.39e+04    1.51e+04    1.51e+04
Rx:       1.00e+00    1.00e+00    7.10e-01    7.10e-01
Ro:       1.23e+05    1.16e+05    5.26e+04    5.26e+04
Cbe:      4.64e-11    4.77e-11    9.70e-11    9.70e-11
Cbc:      1.12e-12    1.11e-12    1.18e-11    1.22e-11
Cjs:      0.00e+00    0.00e+00    0.00e+00    0.00e+00
BetaAC:   3.02e+02    3.02e+02    3.33e+02    3.32e+02
Cbx:      6.87e-13    6.85e-13    1.39e-11    1.44e-11
Ft:       6.74e+07    6.99e+07    2.85e+07    2.83e+07

                        --- VDMOSFET Transistors ---
Name:          m1
Model:       2n7002
Id:          1.19e-03
Vgs:         5.00e+00
Vds:         2.55e-03
Vth:         1.60e+00
Gm:          3.51e-04
Gds:         7.22e-01
Cgs:         5.00e-11
Cgd:         8.00e-11
Cbody:       4.99e-11





Date: Fri May 05 22:27:35 2023
Total elapsed time: 0.235 seconds.

tnom = 27
temp = 27
method = trap
totiter = 530
traniter = 0
tranpoints = 0
accept = 0
rejected = 0
matrix size = 224
fillins = 332
solver = Normal
Matrix Compiler1:    1582 opcodes
Matrix Compiler2: 24.09 KB object code size  3.6/3.3/[1.7]

