Circuit: * C:\Users\joaqu\Desktop\Circuit-Design\LDOA_Regulator\Testbench_LDOA_v3.asc

Rl1: both pins shorted together -- ignoring.
WARNING: Less than two connections to node VAR.  This node is used by V3.
Ignoring empty pin current: Ix(u1:2)
Ignoring empty pin current: Ix(u1:1)
Ignoring empty pin current: Ix(u2:2)
Ignoring empty pin current: Ix(u2:3)
Ignoring empty pin current: Ix(u2:1)
Early termination of direct N-R iteration.
Direct Newton iteration failed to find .op point.  (Use ".option noopiter" to skip.)
Starting Gmin stepping
Gmin = 10
vernier = 0.5
vernier = 0.25
vernier = 0.125
vernier = 0.0625
Gmin = 8.61953
vernier = 0.03125
vernier = 0.015625
vernier = 0.0078125
vernier = 0.00390625
Gmin = 8.47038
vernier = 0.00195313
vernier = 0.000976563
vernier = 0.000488281
Gmin = 0
Gmin stepping failed

Starting source stepping with srcstepmethod=0
Source Step = 3.0303%
Source Step = 33.3333%
Source Step = 42.4242%
Source Step = 50%
Source Step = 57.5758%
Source Step = 65.1515%
Source Step = 67.4331%
Source Step = 67.4627%
Source Step = 67.4923%
Source Step = 67.5219%
Source Step = 67.5515%
Source Step = 67.5811%
vernier = 0.00146484
Source Step = 67.6255%
Source Step = 67.6699%
Source Step = 67.7143%
Source Step = 67.7586%
Source Step = 67.803%
vernier = 0.00219727
Source Step = 67.8674%
Source Step = 67.934%
Source Step = 68.0006%
Source Step = 68.0671%
Source Step = 68.1337%
vernier = 0.0032959
Source Step = 68.2269%
Source Step = 68.3268%
Source Step = 68.4267%
Source Step = 68.5266%
Source Step = 68.6265%
vernier = 0.00494385
Source Step = 68.7613%
Source Step = 68.9111%
Source Step = 69.0609%
Source Step = 69.2107%
Source Step = 69.3605%
vernier = 0.00741577
Source Step = 69.5553%
Source Step = 69.78%
Source Step = 70.0047%
Source Step = 70.2295%
Source Step = 70.4542%
vernier = 0.0111237
Source Step = 70.7351%
Source Step = 71.0722%
Source Step = 71.4092%
Source Step = 71.7463%
Source Step = 72.0834%
vernier = 0.0166855
Source Step = 72.4879%
Source Step = 72.9935%
Source Step = 73.4991%
Source Step = 74.0048%
Source Step = 74.5104%
vernier = 0.0250282
Source Step = 75.0918%
Source Step = 75.8503%
Source Step = 76.6087%
Source Step = 77.3671%
Source Step = 78.1256%
vernier = 0.0375423
Source Step = 78.9598%
Source Step = 80.0975%
Source Step = 81.2351%
Source Step = 82.3728%
Source Step = 83.5104%
vernier = 0.0563135
Source Step = 84.705%
Source Step = 86.4114%
Source Step = 88.1179%
Source Step = 89.8244%
Source Step = 90.8509%
Source Step = 90.8776%
Source Step = 90.9042%
Source Step = 90.9309%
Source Step = 90.9576%
Source Step = 90.9842%
vernier = 0.00131985
Source Step = 91.0176%
Source Step = 91.0576%
Source Step = 91.0976%
Source Step = 91.1375%
Source Step = 91.1775%
vernier = 0.00197977
Source Step = 91.2255%
Source Step = 91.2855%
Source Step = 91.3455%
Source Step = 91.4055%
Source Step = 91.4655%
vernier = 0.00296966
Source Step = 91.5345%
Source Step = 91.6245%
Source Step = 91.7145%
Source Step = 91.8045%
Source Step = 91.8945%
vernier = 0.00445449
Source Step = 91.9935%
Source Step = 92.1284%
Source Step = 92.2634%
Source Step = 92.3984%
Source Step = 92.5334%
vernier = 0.00668173
Source Step = 92.6751%
Source Step = 92.8776%
Source Step = 93.0801%
Source Step = 93.2826%
Source Step = 93.485%
Source Step = 93.6875%
vernier = 0.0100226
Source Step = 93.9912%
Source Step = 94.2949%
Source Step = 94.5987%
Source Step = 94.9024%
Source Step = 95.2061%
vernier = 0.0150339
Source Step = 95.6465%
Source Step = 96.102%
Source Step = 96.5576%
Source Step = 97.0132%
Source Step = 97.4688%
vernier = 0.0225508
Source Step = 98.1066%
Source Step = 98.7899%
Source Step = 99.4733%
Source stepping succeeded in finding the operating point.

Semiconductor Device Operating Points:
                        --- Diodes ---
Name:   d:support:u2:3   d:support:u2:2   d:support:u2:1   d:support:u1:3   d:support:u1:2
Model: support:u2:dmod2 support:u2:dmod1 support:u2:dmod1 support:u1:dmod2 support:u1:dmod1
Id:       -2.86e-12        -4.99e-12         1.77e-02        -1.95e-10        -1.07e-11
Vd:       -2.85e+00        -4.98e+00         7.35e-01        -1.95e+02        -1.07e+01
Req:       1.00e+12         1.00e+12         1.46e+00         1.00e+12         1.00e+12
CAP:       0.00e+00         0.00e+00         0.00e+00         0.00e+00         0.00e+00

Name:   d:support:u1:1  d:support:u3:2   d:support:u3:1    d:u5:p      d:u5:ln
Model: support:u1:dmod1 support:u3:dfor support:u3:dburn    u5:dx       u5:dx
Id:       -1.85e-10        -1.12e-11        4.82e-06      -1.07e-11   -4.00e-11
Vd:       -1.85e+02        -1.24e+00        1.24e+00      -1.07e+01   -4.00e+01
Req:       1.00e+12         1.00e+12        1.25e-05       1.00e+12    1.00e+12
CAP:       0.00e+00         0.00e+00        0.00e+00       0.00e+00    0.00e+00

Name:    d:u5:lp     d:u5:e      d:u5:c      d:u4:p      d:u4:ln
Model:    u5:dx       u5:dx       u5:dx       u4:dx       u4:dx
Id:     -4.00e-11    1.31e-09   -8.34e-12   -1.07e-11   -4.00e-11
Vd:     -4.00e+01    3.70e-01   -8.34e+00   -1.07e+01   -4.00e+01
Req:     1.00e+12    1.98e+07    1.00e+12    1.00e+12    1.00e+12
CAP:     0.00e+00    0.00e+00    0.00e+00    0.00e+00    0.00e+00

Name:    d:u4:lp     d:u4:e      d:u4:c      d:u3:p      d:u3:ln
Model:    u4:dx       u4:dx       u4:dx       u3:dx       u3:dx
Id:     -4.00e-11   -5.64e-14   -7.91e-12   -1.07e-11   -4.00e-11
Vd:     -4.00e+01   -5.57e-02   -7.91e+00   -1.07e+01   -4.00e+01
Req:     1.00e+12    9.96e+11    1.00e+12    1.00e+12    1.00e+12
CAP:     0.00e+00    0.00e+00    0.00e+00    0.00e+00    0.00e+00

Name:    d:u3:lp     d:u3:e      d:u3:c      d:u2:p      d:u2:ln
Model:    u3:dx       u3:dx       u3:dx       u2:dx       u2:dx
Id:     -4.00e-11    2.78e-06   -8.54e-12   -1.07e-11   -4.00e-11
Vd:     -4.00e+01    5.68e-01   -8.53e+00   -1.07e+01   -4.00e+01
Req:     1.00e+12    9.30e+03    1.00e+12    1.00e+12    1.00e+12
CAP:     0.00e+00    0.00e+00    0.00e+00    0.00e+00    0.00e+00

Name:    d:u2:lp     d:u2:e      d:u2:c      d:u1:p      d:u1:ln
Model:    u2:dx       u2:dx       u2:dx       u1:dx       u1:dx
Id:     -4.00e-11    5.77e-08   -8.44e-12   -1.07e-11   -4.00e-11
Vd:     -4.00e+01    4.68e-01   -8.43e+00   -1.07e+01   -4.00e+01
Req:     1.00e+12    4.48e+05    1.00e+12    1.00e+12    1.00e+12
CAP:     0.00e+00    0.00e+00    0.00e+00    0.00e+00    0.00e+00

Name:    d:u1:lp     d:u1:e      d:u1:c
Model:    u1:dx       u1:dx       u1:dx
Id:     -4.00e-11    1.63e-08   -8.40e-12
Vd:     -4.00e+01    4.35e-01   -8.40e+00
Req:     1.00e+12    1.59e+06    1.00e+12
CAP:     0.00e+00    0.00e+00    0.00e+00

                        --- Bipolar Transistors ---
Name:   q:support:u3:6  q:support:u3:5  q:support:u3:2  q:support:u3:1  q:support:u3:nn1
Model:  support:u3:npn1 support:u3:npn1 support:u3:npn1 support:u3:npn1 support:u3:pnp1
Ib:         6.62e-09        3.39e-09        8.77e-09        5.76e-06       -1.03e-08
Ic:         7.95e-07        4.06e-07        1.05e-06        6.85e-04       -4.13e-07
Vbe:        5.90e-01        5.72e-01        5.97e-01        7.05e-01       -5.73e-01
Vbc:       -5.83e-02        6.87e-03        0.00e+00       -5.30e-01        7.26e-02
Vce:        6.48e-01        5.65e-01        5.97e-01        1.24e+00       -6.45e-01
BetaDC:     1.20e+02        1.20e+02        1.20e+02        1.19e+02        4.00e+01
Gm:         3.07e-05        1.57e-05        4.06e-05        2.61e-02        1.60e-05
Rpi:        3.91e+06        7.63e+06        2.95e+06        4.49e+03        2.51e+06
Rx:         0.00e+00        0.00e+00        0.00e+00        0.00e+00        0.00e+00
Ro:         1.26e+08        2.46e+08        9.51e+07        1.47e+05        2.42e+08
Cbe:        1.80e-13        1.63e-13        1.91e-13        2.78e-12        3.07e-13
Cbc:        9.76e-14        1.00e-13        1.00e-13        8.38e-14        9.70e-14
Cjs:        0.00e+00        0.00e+00        0.00e+00        0.00e+00        0.00e+00
BetaAC:     1.20e+02        1.20e+02        1.20e+02        1.17e+02        4.00e+01
Cbx:        0.00e+00        0.00e+00        0.00e+00        0.00e+00        0.00e+00
Ft:         1.76e+07        9.49e+06        2.22e+07        1.45e+09        6.28e+06

Name:   q:support:u3:3  q:support:u3:4  q:support:u3:14   q:u5:2      q:u5:1
Model:  support:u3:pnp1 support:u3:pnp1 support:u3:pnp1    u5:qx       u5:qx
Ib:        -1.79e-07       -1.50e-08       -2.83e-08     -2.06e-08   -2.04e-08
Ic:        -7.17e-06       -6.00e-07       -1.13e-06     -5.14e-06   -5.10e-06
Vbe:       -5.87e-01       -5.82e-01       -5.99e-01     -5.84e-01   -5.84e-01
Vbc:       -5.68e-02        0.00e+00        0.00e+00      4.62e-04    1.11e-03
Vce:       -5.30e-01       -5.82e-01       -5.99e-01     -5.85e-01   -5.85e-01
BetaDC:     3.99e+01        4.00e+01        4.00e+01      2.50e+02    2.50e+02
Gm:         2.77e-04        2.32e-05        4.36e-05      1.99e-04    1.97e-04
Rpi:        1.44e+05        1.72e+06        9.15e+05      1.26e+06    1.27e+06
Rx:         0.00e+00        0.00e+00        0.00e+00      0.00e+00    0.00e+00
Ro:         1.39e+07        1.67e+08        8.86e+07      3.29e+13    3.38e+13
Cbe:        4.26e-13        3.81e-13        5.86e-13      0.00e+00    0.00e+00
Cbc:        1.03e-13        1.00e-13        1.00e-13      0.00e+00    0.00e+00
Cjs:        0.00e+00        0.00e+00        0.00e+00      0.00e+00    0.00e+00
BetaAC:     3.99e+01        3.99e+01        3.99e+01      2.50e+02    2.50e+02
Cbx:        0.00e+00        0.00e+00        0.00e+00      0.00e+00    0.00e+00
Ft:         8.33e+07        7.68e+06        1.01e+07      0.00e+00    0.00e+00

Name:     q:u4:2      q:u4:1      q:u3:2      q:u3:1      q:u2:2
Model:     u4:qx       u4:qx       u3:qx       u3:qx       u2:qx
Ib:      -2.05e-08   -2.04e-08   -2.75e-08   -1.34e-08   -2.07e-08
Ic:      -5.13e-06   -5.09e-06   -6.89e-06   -3.35e-06   -5.17e-06
Vbe:     -5.84e-01   -5.84e-01   -5.92e-01   -5.73e-01   -5.84e-01
Vbc:      1.68e-01    1.69e-01   -5.15e-02    5.10e-03    9.00e-02
Vce:     -7.52e-01   -7.53e-01   -5.40e-01   -5.78e-01   -6.74e-01
BetaDC:   2.50e+02    2.50e+02    2.50e+02    2.50e+02    2.50e+02
Gm:       1.98e-04    1.97e-04    2.66e-04    1.30e-04    2.00e-04
Rpi:      1.26e+06    1.27e+06    9.39e+05    1.93e+06    1.25e+06
Rx:       0.00e+00    0.00e+00    0.00e+00    0.00e+00    0.00e+00
Ro:       2.17e+16    2.22e+16    4.41e+12    3.94e+13    1.05e+15
Cbe:      0.00e+00    0.00e+00    0.00e+00    0.00e+00    0.00e+00
Cbc:      0.00e+00    0.00e+00    0.00e+00    0.00e+00    0.00e+00
Cjs:      0.00e+00    0.00e+00    0.00e+00    0.00e+00    0.00e+00
BetaAC:   2.50e+02    2.50e+02    2.50e+02    2.50e+02    2.50e+02
Cbx:      0.00e+00    0.00e+00    0.00e+00    0.00e+00    0.00e+00
Ft:       0.00e+00    0.00e+00    0.00e+00    0.00e+00    0.00e+00

Name:     q:u2:1      q:u1:2      q:u1:1        q6          q5
Model:     u2:qx       u1:qx       u1:qx      2n2222      q2n6487
Ib:      -2.02e-08   -2.06e-08   -2.03e-08    4.96e-06    8.18e-06
Ic:      -5.06e-06   -5.15e-06   -5.09e-06    9.87e-04    2.05e-03
Vbe:     -5.84e-01   -5.84e-01   -5.84e-01    6.55e-01    3.74e-01
Vbc:      9.18e-02    4.10e-02    4.20e-02    2.35e-01   -5.16e+00
Vce:     -6.75e-01   -6.25e-01   -6.26e-01    4.20e-01    5.53e+00
BetaDC:   2.50e+02    2.50e+02    2.50e+02    1.99e+02    2.50e+02
Gm:       1.96e-04    1.99e-04    1.97e-04    3.80e-02    9.12e-02
Rpi:      1.28e+06    1.26e+06    1.27e+06    5.21e+03    2.69e+03
Rx:       0.00e+00    0.00e+00    0.00e+00    1.00e+01    4.68e+00
Ro:       1.12e+15    1.58e+14    1.64e+14    1.01e+05    8.82e+03
Cbe:      0.00e+00    0.00e+00    0.00e+00    5.44e-11    8.86e-10
Cbc:      0.00e+00    0.00e+00    0.00e+00    9.06e-12    1.17e-10
Cjs:      0.00e+00    0.00e+00    0.00e+00    0.00e+00    0.00e+00
BetaAC:   2.50e+02    2.50e+02    2.50e+02    1.98e+02    2.45e+02
Cbx:      0.00e+00    0.00e+00    0.00e+00    0.00e+00    2.93e-11
Ft:       0.00e+00    0.00e+00    0.00e+00    9.54e+07    1.40e+07

Name:     q§tip1        q8          q7          q4          q3
Model:    tip42c      bc546b      bc546b      bc546b      bc546b
Ib:      -2.05e-03    1.03e-05    3.56e-06   -1.04e-12    3.30e-06
Ic:      -2.24e-01    9.96e-04    1.00e-03    4.80e-13    9.92e-04
Vbe:     -7.49e-01    6.40e-01    6.39e-01   -5.58e-01    6.37e-01
Vbc:      5.53e+00    5.50e-01    0.00e+00   -4.14e-01   -4.07e+00
Vce:     -6.28e+00    9.03e-02    6.39e-01   -1.43e-01    4.71e+00
BetaDC:   1.10e+02    9.64e+01    2.82e+02   -4.61e-01    3.01e+02
Gm:       7.63e+00    3.81e-02    3.82e-02   -1.11e-19    3.77e-02
Rpi:      1.32e+01    7.04e+03    7.35e+03    1.00e+12    7.94e+03
Rx:       1.00e-01    1.00e+00    1.00e+00    1.00e+00    1.00e+00
Ro:       4.70e+02    6.84e+02    6.13e+04    8.96e+18    6.62e+04
Cbe:      1.78e-07    6.37e-11    6.26e-11    1.11e-11    6.14e-11
Cbc:      2.20e-10    2.33e-11    2.31e-12    1.87e-12    1.13e-12
Cjs:      0.00e+00    0.00e+00    0.00e+00    0.00e+00    0.00e+00
BetaAC:   1.01e+02    2.68e+02    2.81e+02   -1.11e-07    3.00e+02
Cbx:      0.00e+00    1.43e-11    1.42e-12    1.15e-12    6.96e-13
Ft:       6.82e+06    5.99e+07    9.17e+07    1.13e-02    9.49e+07

Name:       q2          q1
Model:   bc327-25    bc327-25
Ib:      -2.62e-06   -3.01e-06
Ic:      -9.95e-04   -9.87e-04
Vbe:     -5.85e-01   -5.89e-01
Vbc:      4.85e+00    0.00e+00
Vce:     -5.44e+00   -5.89e-01
BetaDC:   3.79e+02    3.27e+02
Gm:       3.87e-02    3.83e-02
Rpi:      1.01e+04    8.76e+03
Rx:       6.82e-01    6.73e-01
Ro:       3.47e+04    3.01e+04
Cbe:      1.10e-10    1.11e-10
Cbc:      4.25e-12    1.22e-11
Cjs:      0.00e+00    0.00e+00
BetaAC:   3.90e+02    3.36e+02
Cbx:      5.01e-12    1.44e-11
Ft:       5.14e+07    4.44e+07

                        --- VDMOSFET Transistors ---
Name:          m1
Model:       2n7002
Id:          5.39e-06
Vgs:         4.97e+00
Vds:         1.16e-05
Vth:         1.60e+00
Gm:          1.60e-06
Gds:         7.17e-01
Cgs:         5.00e-11
Cgd:         8.00e-11
Cbody:       5.00e-11



Date: Fri Jun 23 19:57:13 2023
Total elapsed time: 645.874 seconds.

tnom = 27
temp = 27
method = trap
totiter = 2691
traniter = 0
tranpoints = 0
accept = 0
rejected = 0
matrix size = 219
fillins = 1912
solver = Normal
Thread vector: 17.7/10.3[3] 0.0/0.0[0] 9.4/5.1[3] 2.3/3.1[1]  2592/500
Matrix Compiler1: 295.24 KB object code size
Matrix Compiler2: 49.20 KB object code size  8.8/6.0/[3.2]

