Circuit: * C:\Users\joaqu\Desktop\Circuit-Design\LDOB_Regulator\LDOB_Regulator_v1.asc

Ignoring empty pin current: Ix(u1:1)
Ignoring empty pin current: Ix(u1:2)
Ignoring empty pin current: Ix(u2:1)
Ignoring empty pin current: Ix(u2:2)
Ignoring empty pin current: Ix(u3:1)
Ignoring empty pin current: Ix(u3:2)
Ignoring empty pin current: Ix(u4:1)
Ignoring empty pin current: Ix(u4:2)
Ignoring empty pin current: Ix(u5:1)
Ignoring empty pin current: Ix(u5:2)
Direct Newton iteration failed to find .op point.  (Use ".option noopiter" to skip.)
Starting Gmin stepping
Gmin = 10
Gmin = 1.07374
Gmin = 0.115292
Gmin = 0.0123794
Gmin = 0.00132923
Gmin = 0.000142725
Gmin = 1.5325e-005
Gmin = 1.6455e-006
Gmin = 1.76685e-007
Gmin = 1.89714e-008
Gmin = 2.03704e-009
Gmin = 2.18725e-010
Gmin = 2.34854e-011
Gmin = 2.52173e-012
Gmin = 2.70769e-013
Gmin = 0
Gmin stepping succeeded in finding the operating point.

Semiconductor Device Operating Points:
                        --- Bipolar Transistors ---
Name:       q7        q2n6487    q§tip42c       q4          q3
Model:    2n2222      q2n6487     tip42c     bc327-25    bc327-25
Ib:       6.21e-06    2.00e-05   -4.89e-03   -3.25e-06   -3.34e-06
Ic:       1.23e-03    4.89e-03   -4.77e-01   -1.25e-03   -1.10e-03
Vbe:      6.61e-01    3.94e-01   -7.72e-01   -5.91e-01   -5.92e-01
Vbc:      1.70e-01   -5.09e+00    5.48e+00    5.26e+00    0.00e+00
Vce:      4.91e-01    5.48e+00   -6.25e+00   -5.85e+00   -5.92e-01
BetaDC:   1.99e+02    2.45e+02    9.76e+01    3.86e+02    3.28e+02
Gm:       4.75e-02    2.18e-01    1.45e+01    4.87e-02    4.26e-02
Rpi:      4.17e+03    1.10e+03    5.47e+00    8.13e+03    7.89e+03
Rx:       1.00e+01    4.68e+00    1.00e-01    6.68e-01    6.66e-01
Ro:       8.09e+04    3.62e+03    2.21e+02    2.79e+04    2.71e+04
Cbe:      5.83e-11    9.58e-10    3.38e-07    1.19e-10    1.14e-10
Cbc:      8.71e-12    1.18e-10    2.22e-10    4.11e-12    1.22e-11
Cjs:      0.00e+00    0.00e+00    0.00e+00    0.00e+00    0.00e+00
BetaAC:   1.98e+02    2.40e+02    7.94e+01    3.96e+02    3.36e+02
Cbx:      0.00e+00    2.94e-11    0.00e+00    4.84e-12    1.44e-11
Ft:       1.13e+08    3.13e+07    6.83e+06    6.08e+07    4.82e+07

Name:       q9          q8          q2          q1
Model:    bc546b      bc546b      bc546b      bc546b
Ib:       3.93e-06    3.93e-06   -1.09e-12    3.64e-06
Ic:       1.11e-03    1.11e-03    5.39e-13    1.10e-03
Vbe:      6.42e-01    6.42e-01   -5.43e-01    6.40e-01
Vbc:      8.15e-02    0.00e+00   -4.73e-01   -4.55e+00
Vce:      5.60e-01    6.42e-01   -6.97e-02    5.19e+00
BetaDC:   2.82e+02    2.82e+02   -4.96e-01    3.03e+02
Gm:       4.21e-02    4.21e-02   -1.08e-20    4.19e-02
Rpi:      6.65e+03    6.65e+03    1.00e+12    7.18e+03
Rx:       1.00e+00    1.00e+00    1.00e+00    1.00e+00
Ro:       5.56e+04    5.56e+04    8.60e+19    6.00e+04
Cbe:      6.55e-11    6.55e-11    1.11e-11    6.45e-11
Cbc:      2.47e-12    2.31e-12    1.83e-12    1.10e-12
Cjs:      0.00e+00    0.00e+00    0.00e+00    0.00e+00
BetaAC:   2.80e+02    2.80e+02   -1.08e-08    3.01e+02
Cbx:      1.52e-12    1.42e-12    1.13e-12    6.75e-13
Ft:       9.64e+07    9.68e+07    1.13e-02    1.01e+08

                        --- VDMOSFET Transistors ---
Name:          m1
Model:       2n7002
Id:          5.33e-11
Vgs:         0.00e+00
Vds:         8.82e-03
Vth:         1.60e+00
Gm:          2.15e-16
Gds:         0.00e+00
Cgs:         5.00e-11
Cgd:         5.33e-11
Cbody:       4.98e-11


