Circuit: * C:\Users\joaqu\Desktop\Circuit-Design\LDOB_Regulator\LDOB_Regulator_v1.asc

Ignoring empty pin current: Ix(u1:1)
Ignoring empty pin current: Ix(u1:2)
Ignoring empty pin current: Ix(u2:1)
Ignoring empty pin current: Ix(u2:2)
Ignoring empty pin current: Ix(u3:1)
Ignoring empty pin current: Ix(u3:2)
Ignoring empty pin current: Ix(u4:1)
Ignoring empty pin current: Ix(u4:2)
Ignoring empty pin current: Ix(u5:1)
Ignoring empty pin current: Ix(u5:2)
Direct Newton iteration for .op point succeeded.
Semiconductor Device Operating Points:
                        --- Bipolar Transistors ---
Name:       q7          q5          q4          q3          q9
Model:    2n2222      d45h11     bc327-25    bc327-25     bc546b
Ib:       6.16e-06   -4.94e-03   -3.25e-06   -3.34e-06    3.93e-06
Ic:       1.23e-03   -4.77e-01   -1.25e-03   -1.10e-03    1.11e-03
Vbe:      6.61e-01   -4.98e-01   -5.91e-01   -5.92e-01    6.42e-01
Vbc:     -1.17e-01    5.76e+00    4.98e+00    0.00e+00    8.15e-02
Vce:      7.78e-01   -6.25e+00   -5.57e+00   -5.92e-01    5.60e-01
BetaDC:   1.99e+02    9.67e+01    3.83e+02    3.28e+02    2.82e+02
Gm:       4.73e-02    2.10e+01    4.84e-02    4.26e-02    4.21e-02
Rpi:      4.20e+03    4.46e+00    8.11e+03    7.89e+03    6.65e+03
Rx:       1.00e+01    2.16e+00    6.68e-01    6.66e-01    1.00e+00
Ro:       8.15e+04    3.39e+01    2.78e+04    2.71e+04    5.56e+04
Cbe:      5.83e-11    8.38e-08    1.18e-10    1.14e-10    6.55e-11
Cbc:      7.63e-12    2.10e-10    4.21e-12    1.22e-11    2.47e-12
Cjs:      0.00e+00    0.00e+00    0.00e+00    0.00e+00    0.00e+00
BetaAC:   1.99e+02    9.36e+01    3.92e+02    3.36e+02    2.80e+02
Cbx:      0.00e+00    5.15e-11    4.96e-12    1.44e-11    1.52e-12
Ft:       1.14e+08    3.97e+07    6.04e+07    4.82e+07    9.64e+07

Name:       q8          q6          q2          q1
Model:    bc546b      bc546b      bc546b      bc546b
Ib:       3.93e-06    1.65e-05   -1.37e-12    3.64e-06
Ic:       1.11e-03    4.94e-03    8.26e-13    1.10e-03
Vbe:      6.42e-01    6.81e-01   -5.43e-01    6.40e-01
Vbc:      0.00e+00   -5.07e+00   -7.60e-01   -4.55e+00
Vce:      6.42e-01    5.76e+00    2.17e-01    5.19e+00
BetaDC:   2.82e+02    2.98e+02   -6.02e-01    3.03e+02
Gm:       4.21e-02    1.83e-01    8.60e-22    4.19e-02
Rpi:      6.65e+03    1.58e+03    1.00e+12    7.18e+03
Rx:       1.00e+00    1.00e+00    1.00e+00    1.00e+00
Ro:       5.56e+04    1.35e+04    1.89e+24    6.00e+04
Cbe:      6.55e-11    1.45e-10    1.11e-11    6.45e-11
Cbc:      2.31e-12    1.07e-12    1.69e-12    1.10e-12
Cjs:      0.00e+00    0.00e+00    0.00e+00    0.00e+00
BetaAC:   2.80e+02    2.89e+02    8.60e-10    3.01e+02
Cbx:      1.42e-12    6.55e-13    1.04e-12    6.75e-13
Ft:       9.68e+07    1.99e+08    1.15e-02    1.01e+08

                        --- VDMOSFET Transistors ---
Name:          m1
Model:       ao6408
Id:          1.46e-09
Vgs:         0.00e+00
Vds:         8.60e-03
Vth:         1.00e+00
Gm:          1.85e-08
Gds:         0.00e+00
Cgs:         1.00e-09
Cgd:         5.23e-10
Cbody:       3.58e-10



Date: Thu Apr 27 21:29:46 2023
Total elapsed time: 18.278 seconds.

tnom = 27
temp = 27
method = trap
totiter = 462
traniter = 0
tranpoints = 0
accept = 0
rejected = 0
matrix size = 62
fillins = 61
solver = Normal
Matrix Compiler1: 6.90 KB object code size
Matrix Compiler2: 6.23 KB object code size  0.7/1.1/[0.7]

