Circuit: * C:\Users\joaqu\Desktop\Circuit-Design\LDOB_Regulator\LDOB_Regulator_v1.asc

WARNING: Less than two connections to node VCOMP_I.  This node is used by VCOMP2.
Early termination of direct N-R iteration.
Direct Newton iteration failed to find .op point.  (Use ".option noopiter" to skip.)
Starting Gmin stepping
Gmin = 10
Gmin = 1.07374
Gmin = 0.115292
Gmin = 0.0123794
Gmin = 0.00132923
Gmin = 0.000142725
Gmin = 1.5325e-005
Gmin = 1.6455e-006
Gmin = 1.76685e-007
Gmin = 1.89714e-008
Gmin = 2.03704e-009
Gmin = 2.18725e-010
Gmin = 2.34854e-011
Gmin = 2.52173e-012
Gmin = 2.70769e-013
Gmin = 0
Gmin stepping succeeded in finding the operating point.

Semiconductor Device Operating Points:
                        --- Diodes ---
Name:    d:u1:3      d:u1:4      d:u1:6      d:u1:5      d:u1:2
Model:    u1:dx       u1:dx       u1:dx       u1:dx       u1:dx
Id:     -2.76e-13   -2.66e-13    3.07e-05    4.44e-05    9.87e-05
Vd:     -2.75e-01   -2.65e-01    6.25e-01    6.34e-01    6.55e-01
Req:     1.00e+12    1.00e+12    8.43e+02    5.82e+02    2.62e+02
CAP:     0.00e+00    0.00e+00    0.00e+00    0.00e+00    0.00e+00

Name:    d:u1:1      d:u5:3      d:u5:4      d:u5:6      d:u5:5
Model:    u1:dx       u5:dx       u5:dx       u5:dx       u5:dx
Id:     -4.74e-12   -2.78e-13   -2.64e-13    2.89e-05    4.72e-05
Vd:     -4.74e+00   -2.77e-01   -2.63e-01    6.23e-01    6.36e-01
Req:     1.00e+12    1.00e+12    1.00e+12    8.96e+02    5.48e+02
CAP:     0.00e+00    0.00e+00    0.00e+00    0.00e+00    0.00e+00

Name:    d:u5:2      d:u5:1      d:u4:3      d:u4:4      d:u4:6
Model:    u5:dx       u5:dx       u4:dx       u4:dx       u4:dx
Id:     -4.23e-14   -4.04e-12   -2.43e-13   -2.99e-13    1.03e-04
Vd:     -4.15e-02   -4.04e+00   -2.42e-01   -2.98e-01    6.56e-01
Req:     9.92e+11    1.00e+12    1.00e+12    1.00e+12    2.52e+02
CAP:     0.00e+00    0.00e+00    0.00e+00    0.00e+00    0.00e+00

Name:    d:u4:5      d:u4:2      d:u4:1      d:u3:3      d:u3:4
Model:    u4:dx       u4:dx       u4:dx       u3:dx       u3:dx
Id:      1.29e-05   -9.01e-13   -3.19e-12   -2.59e-13   -2.83e-13
Vd:      6.02e-01   -9.00e-01   -3.18e+00   -2.58e-01   -2.82e-01
Req:     2.01e+03    1.00e+12    1.00e+12    1.00e+12    1.00e+12
CAP:     0.00e+00    0.00e+00    0.00e+00    0.00e+00    0.00e+00

Name:    d:u3:6      d:u3:5      d:u3:2      d:u3:1      d:u6:3
Model:    u3:dx       u3:dx       u3:dx       u3:dx       u6:dx
Id:      5.82e-05    2.33e-05   -4.80e-13   -3.61e-12   -2.83e-13
Vd:      6.41e-01    6.17e-01   -4.79e-01   -3.61e+00   -2.82e-01
Req:     4.44e+02    1.11e+03    1.00e+12    1.00e+12    1.00e+12
CAP:     0.00e+00    0.00e+00    0.00e+00    0.00e+00    0.00e+00

Name:    d:u6:4      d:u6:6      d:u6:5      d:u6:2      d:u6:1
Model:    u6:dx       u6:dx       u6:dx       u6:dx       u6:dx
Id:     -2.59e-13    2.33e-05    5.83e-05    1.32e-11   -4.33e-12
Vd:     -2.58e-01    6.17e-01    6.41e-01    2.45e-01   -4.33e+00
Req:     1.00e+12    1.11e+03    4.44e+02    1.99e+09    1.00e+12
CAP:     0.00e+00    0.00e+00    0.00e+00    0.00e+00    0.00e+00

                        --- Bipolar Transistors ---
Name:     q:u1:2      q:u1:1      q:u5:2      q:u5:1      q:u4:2
Model:     u1:qx       u1:qx       u5:qx       u5:qx       u4:qx
Ib:      -8.99e-08    1.38e-12   -4.50e-08   -4.49e-08   -4.50e-08
Ic:      -9.99e-05   -1.36e-12   -5.00e-05   -4.99e-05   -5.00e-05
Vbe:     -7.15e-01    1.78e-02   -6.97e-01   -6.97e-01   -6.97e-01
Vbc:      5.79e-01    1.36e+00    3.03e+00    3.03e+00    7.28e-01
Vce:     -1.29e+00   -1.34e+00   -3.73e+00   -3.73e+00   -1.42e+00
BetaDC:   1.11e+03   -9.87e-01    1.11e+03    1.11e+03    1.11e+03
Gm:       3.86e-03    1.95e-15    1.93e-03    1.93e-03    1.93e-03
Rpi:      2.88e+05    1.00e+12    5.75e+05    5.76e+05    5.75e+05
Rx:       0.00e+00    0.00e+00    0.00e+00    0.00e+00    0.00e+00
Ro:       1.34e+24    1.97e+37    1.98e+65    1.99e+65    4.37e+26
Cbe:      0.00e+00    0.00e+00    0.00e+00    0.00e+00    0.00e+00
Cbc:      0.00e+00    0.00e+00    0.00e+00    0.00e+00    0.00e+00
Cjs:      0.00e+00    0.00e+00    0.00e+00    0.00e+00    0.00e+00
BetaAC:   1.11e+03    1.95e-03    1.11e+03    1.11e+03    1.11e+03
Cbx:      0.00e+00    0.00e+00    0.00e+00    0.00e+00    0.00e+00
Ft:       0.00e+00    0.00e+00    0.00e+00    0.00e+00    0.00e+00

Name:     q:u4:1      q:u3:2      q:u3:1      q:u6:2      q:u6:1
Model:     u4:qx       u3:qx       u3:qx       u6:qx       u6:qx
Ib:      -4.49e-08   -4.50e-08   -4.49e-08   -4.50e-08   -4.49e-08
Ic:      -4.99e-05   -5.00e-05   -4.99e-05   -5.00e-05   -4.99e-05
Vbe:     -6.97e-01   -6.97e-01   -6.97e-01   -6.97e-01   -6.97e-01
Vbc:      7.28e-01    1.08e+00    1.08e+00    3.76e-01    3.76e-01
Vce:     -1.43e+00   -1.77e+00   -1.77e+00   -1.07e+00   -1.07e+00
BetaDC:   1.11e+03    1.11e+03    1.11e+03    1.11e+03    1.11e+03
Gm:       1.93e-03    1.93e-03    1.93e-03    1.93e-03    1.93e-03
Rpi:      5.75e+05    5.75e+05    5.75e+05    5.75e+05    5.76e+05
Rx:       0.00e+00    0.00e+00    0.00e+00    0.00e+00    0.00e+00
Ro:       4.38e+26    3.00e+32    3.01e+32    5.39e+20    5.41e+20
Cbe:      0.00e+00    0.00e+00    0.00e+00    0.00e+00    0.00e+00
Cbc:      0.00e+00    0.00e+00    0.00e+00    0.00e+00    0.00e+00
Cjs:      0.00e+00    0.00e+00    0.00e+00    0.00e+00    0.00e+00
BetaAC:   1.11e+03    1.11e+03    1.11e+03    1.11e+03    1.11e+03
Cbx:      0.00e+00    0.00e+00    0.00e+00    0.00e+00    0.00e+00
Ft:       0.00e+00    0.00e+00    0.00e+00    0.00e+00    0.00e+00

Name:       q7        q2n6487    q§tip42c       q4          q3
Model:    2n2222      q2n6487     tip42c     bc327-25    bc327-25
Ib:      -3.80e-12    3.86e-05   -7.57e-03   -1.61e-06   -1.69e-06
Ic:       3.79e-12    7.57e-03   -6.52e-01   -5.48e-04   -5.45e-04
Vbe:     -1.49e-02    4.09e-01   -7.84e-01   -5.72e-01   -5.74e-01
Vbc:     -3.78e+00   -1.80e+00    2.21e+00    1.75e+00    0.00e+00
Vce:      3.77e+00    2.21e+00   -2.99e+00   -2.32e+00   -5.74e-01
BetaDC:  -9.97e-01    1.96e+02    8.61e+01    3.40e+02    3.22e+02
Gm:       2.26e-13    3.35e-01    1.85e+01    2.13e-02    2.12e-02
Rpi:      9.99e+11    5.70e+02    3.52e+00    1.65e+04    1.57e+04
Rx:       1.00e+01    4.67e+00    1.00e-01    7.16e-01    7.13e-01
Ro:       1.78e+16    1.87e+03    1.57e+02    5.74e+04    5.45e+04
Cbe:      2.48e-11    1.02e-09    4.33e-07    9.62e-11    9.63e-11
Cbc:      4.42e-12    1.49e-10    3.62e-10    6.37e-12    1.22e-11
Cjs:      0.00e+00    0.00e+00    0.00e+00    0.00e+00    0.00e+00
BetaAC:   2.26e-01    1.91e+02    6.52e+01    3.51e+02    3.32e+02
Cbx:      0.00e+00    3.72e-11    0.00e+00    7.51e-12    1.44e-11
Ft:       5.31e-03    4.41e+07    6.81e+06    3.08e+07    2.75e+07

Name:       q9          q8          q2          q1
Model:    bc546b      bc546b      bc546b      bc546b
Ib:       1.96e-05    3.84e-06    1.73e-06    1.81e-06
Ic:       1.06e-03    1.08e-03    5.10e-04    5.49e-04
Vbe:      6.43e-01    6.41e-01    6.20e-01    6.21e-01
Vbc:      5.73e-01    0.00e+00   -2.57e+00   -4.32e+00
Vce:      7.04e-02    6.41e-01    3.19e+00    4.94e+00
BetaDC:   5.42e+01    2.82e+02    2.95e+02    3.03e+02
Gm:       4.09e-02    4.11e-02    1.95e-02    2.09e-02
Rpi:      6.25e+03    6.82e+03    1.51e+04    1.44e+04
Rx:       1.00e+00    1.00e+00    1.00e+00    1.00e+00
Ro:       2.83e+02    5.69e+04    1.26e+05    1.20e+05
Cbe:      6.72e-11    6.48e-11    4.57e-11    4.69e-11
Cbc:      2.56e-11    2.31e-12    1.28e-12    1.11e-12
Cjs:      0.00e+00    0.00e+00    0.00e+00    0.00e+00
BetaAC:   2.55e+02    2.80e+02    2.94e+02    3.02e+02
Cbx:      1.58e-11    1.42e-12    7.85e-13    6.85e-13
Ft:       5.99e+07    9.56e+07    6.48e+07    6.84e+07

                        --- VDMOSFET Transistors ---
Name:          m1
Model:       2n7002
Id:          3.99e-11
Vgs:         0.00e+00
Vds:         6.02e-01
Vth:         1.60e+00
Gm:          2.15e-16
Gds:         0.00e+00
Cgs:         5.00e-11
Cgd:         3.92e-11
Cbody:       3.95e-11





Date: Sun May 07 18:01:39 2023
Total elapsed time: 0.427 seconds.

tnom = 27
temp = 27
method = trap
totiter = 554
traniter = 0
tranpoints = 0
accept = 0
rejected = 0
matrix size = 218
fillins = 319
solver = Normal
Matrix Compiler1:    1532 opcodes
Matrix Compiler2: 23.50 KB object code size  7.0/7.3/[3.0]

